(0000000036.762051) can0 39A#800000000000320E
(0000000036.762287) can0 217#2204018881FF0040
(0000000036.762518) can0 257#348AED03D8070AE0
(0000000036.762754) can0 2C8#00C000C502C300BD
(0000000036.762998) can0 397#1000000000376700
(0000000036.763234) can0 457#4800096006960082
(0000000036.763474) can0 477#0057015500000000
(0000000036.763707) can0 4F7#00240053270F527E
(0000000036.763959) can0 4FD#0000000000000000
(0000000036.764199) can0 4FF#00000000CC743608
(0000000036.764429) can0 295#B43900E2FD2B82D4
(0000000036.764674) can0 293#000227FF100007FF
(0000000036.764918) can0 2B5#0700B20064000000
(0000000036.765148) can0 2A6#00C600D200C518C6
(0000000036.765380) can0 315#0006256300FC6350
(0000000036.765619) can0 346#0028C900C804081C
(0000000036.765843) can0 355#FF78786C7897786E
(0000000036.766077) can0 3B9#6E38850070148000
(0000000036.766327) can0 3CF#0000000000000000
(0000000036.766573) can0 4B5#0500000000070000
(0000000036.766804) can0 4D5#02A7240C60F49228
(0000000036.767046) can0 45D#0000000000006F34
(0000000036.767610) can0 280#0000080600371E16
(0000000036.767649) can1 010#007CF80A00F11E16
(0000000036.768639) can1 492#0000000000000000
(0000000036.768776) can0 215#E3FBC40B6BF993F9
(0000000036.769006) can0 255#89E46E006BFBC3FB
(0000000036.769744) can0 289#000038321A203000
(0000000036.771659) can0 20B#C30787FF10000000
(0000000036.771899) can0 24B#C8C83DF300000000
(0000000036.772135) can0 217#2204018881FF0040
(0000000036.772379) can0 294#7C6CC80180008000
(0000000036.772621) can0 29B#3FFE007020130000
(0000000036.772868) can0 2CB#0000280007FF87FF
(0000000036.773116) can0 3EB#000062000000FFFE
(0000000036.773362) can0 4F8#00160802080107FD
(0000000036.774886) can0 293#000327FF180007FF
(0000000036.775134) can0 358#00100200000057FE
(0000000036.775380) can0 3D3#000000004C0006E0
(0000000036.775630) can0 3D8#0000000000000000
(0000000036.775699) can1 0F0#0000020080030841
(0000000036.775869) can0 3F3#1C260284FF7F0080
(0000000036.776795) can0 257#338AED04D8070BE0
(0000000036.777031) can0 337#3B503F9191000000
(0000000036.777267) can0 2C8#00C000C502C300BD
(0000000036.777511) can0 397#1000000000376700
(0000000036.777752) can0 280#0000090600271E16
(0000000036.777755) can1 0B8#ECE7F80002D400FF
(0000000036.778698) can1 128#09300202C543E46B
(0000000036.779395) can0 495#8000000000000000
(0000000036.779625) can1 160#01AC451E05769600
(0000000036.779892) can0 2A6#00C600D200C518C6
(0000000036.780591) can1 490#008005F36B000000
(0000000036.781590) can1 4A6#0800000000000000
(0000000036.781736) can0 39A#800000000000320E
(0000000036.781998) can0 217#2204018881FF0050
(0000000036.782949) can1 498#03600801C8000000
(0000000036.783884) can1 49B#1858406100009C02
(0000000036.784046) can0 215#E3FBC40B6BF793F7
(0000000036.784276) can0 255#89E46E006BFBC3FB
(0000000036.784522) can0 293#000427FF200007FF
(0000000036.784760) can0 289#000038321A203000
(0000000036.784851) can1 4A1#000000B40000C001
(0000000036.784989) can0 295#B43A00E5FD2982D6
(0000000036.785233) can0 2B5#0700B20064000000
(0000000036.785465) can0 315#0006256300FC6350
(0000000036.785705) can0 353#02694000000002A6
(0000000036.785779) can1 4E3#9709F0022505C5ED
(0000000036.785939) can0 3B9#6E38850070148000
(0000000036.786187) can0 3CF#8000000000000000
(0000000036.786640) can0 422#000000000000F160
(0000000036.786744) can1 494#5800000441030841
(0000000036.786878) can0 20B#C30887FF14000000
(0000000036.787118) can0 24B#C8C83DF300000000
(0000000036.787360) can0 294#7C6BC80180008000
(0000000036.787606) can0 2CB#0000280007FF87FF
(0000000036.787847) can0 280#00000A0600171E16
(0000000036.790644) can1 496#0000000000004000
(0000000036.791659) can0 29B#3FFF007020030000
(0000000036.791764) can1 4C2#0000000000000834
(0000000036.791905) can0 4F8#0016080207FF07FD
(0000000036.792143) can0 217#2204018881FF0050
(0000000036.792374) can0 257#338AED05D8070CE0
(0000000036.792610) can0 2C8#00C000C502C300BD
(0000000036.792854) can0 397#1000000000376700
(0000000036.793104) can0 4FB#0000000000000008
(0000000036.794873) can0 2A6#00C600D200C518C6
(0000000036.795117) can0 293#000527FF280007FF
(0000000036.795355) can0 346#0028C900C804081C
(0000000036.795604) can0 358#00100200000057FE
(0000000036.795850) can0 3D3#000000004C0006E0
(0000000036.796100) can0 3D8#0000000000000000
(0000000036.796338) can0 3F3#1C260385FF7F0080
(0000000036.797159) can1 080#0308417800093100
(0000000036.797622) can0 280#00000B0600071E16
(0000000036.798142) can1 048#0000000088040101
(0000000036.798688) can0 215#E3FBC40B6BF693F6
(0000000036.798918) can0 255#89E46E006BFBC3FB
(0000000036.799160) can0 45D#0000000000006F34
(0000000036.799764) can0 289#000038321A203000
(0000000036.801655) can0 20B#C30987FF18000000
(0000000036.801895) can0 24B#C8C83DF300000000
(0000000036.802133) can0 217#2204018881FF0050
(0000000036.802377) can0 294#7C6CC80180008000
(0000000036.802624) can0 2CB#0000280007FF87FF
(0000000036.802862) can0 337#0A403F9191000000
(0000000036.803104) can0 39A#800000000000320E
(0000000036.803352) can0 3EB#000062000000FFFE
(0000000036.803588) can0 457#4800096006960082
(0000000036.803828) can0 477#0057015500000000
(0000000036.804080) can0 4FD#0000000000000000
(0000000036.804311) can0 295#B43B00E1FD2E82D1
(0000000036.804553) can0 293#000627FF300007FF
(0000000036.804797) can0 2B5#0700B20064000000
(0000000036.805029) can0 315#0006256300FC6350
(0000000036.805909) can0 3CF#0000000000000000
(0000000036.806144) can0 3B9#6E38850070148000
(0000000036.806696) can0 257#338AED06D8070DE0
(0000000036.806940) can0 397#1000000000376700
(0000000036.807176) can0 2C8#00C000C502C300BD
(0000000036.807682) can0 280#00000C0600771E16
(0000000036.809482) can1 49D#0000000000000000
(0000000036.809881) can0 2A6#00C600D200C518C6
(0000000036.811645) can0 29B#3FF1007020E30000
(0000000036.811881) can0 217#2204018881FF0060
(0000000036.812128) can0 4F8#00160802080007FD
(0000000036.812841) can1 010#007CF80A00F11E16
(0000000036.813760) can1 4A8#224178787878EA00
(0000000036.814191) can0 215#E3FBC40A6BF893F8
(0000000036.814421) can0 255#89E46E006BFBC3FB
(0000000036.814645) can0 355#FF78786C7897786E
(0000000036.814752) can1 4C4#FFFFFFFFFFFFFFFF
(0000000036.814884) can0 289#000038321A203000
(0000000036.815128) can0 293#000727FF380007FF
(0000000036.815366) can0 353#026A4000000002A6
(0000000036.815614) can0 358#00100200000057FE
(0000000036.815747) can1 4CB#0000000500000002
(0000000036.815860) can0 3D3#000000004C0006E0
(0000000036.816110) can0 3D8#0000000000000000
(0000000036.816349) can0 3F3#1C260486FF7F0080
(0000000036.816601) can0 478#0000000000000000
(0000000036.816744) can1 4CD#00000000FFFFFFFF
(0000000036.816847) can0 422#000000000000F160
(0000000036.817077) can0 4D5#02A7240C60F49228
(0000000036.817315) can0 20B#C30A87FF1C000000
(0000000036.817556) can0 24B#C8C83DF300000000
(0000000036.817748) can1 4CF#00000000FFFFFFFF
(0000000036.817796) can0 280#00000D0600671E16
(0000000036.818040) can0 294#7C6CC80180008000
(0000000036.818286) can0 2CB#0000280007FF87FF
(0000000036.818814) can0 495#8000000000000000
(0000000036.819388) can1 4DA#0000000000000000
(0000000036.820323) can1 198#2000F4C7F4A9A100
(0000000036.821307) can1 1D0#0001000050001200
(0000000036.821709) can0 39A#800000000000320E
(0000000036.821945) can0 217#2204018881FF0060
(0000000036.822177) can0 257#348AED07D8070EE0
(0000000036.822306) can1 208#0040000001000000
(0000000036.822413) can0 2C8#00C000C502C300BD
(0000000036.822657) can0 397#1000000000376700
(0000000036.822889) can0 4F7#00240053270F527E
(0000000036.823134) can0 4FF#00000000CC743609
(0000000036.823290) can1 4DD#0101000000000000
(0000000036.824062) can0 295#B43C00E3FD2D82D2
(0000000036.824273) can1 4DF#FF0000020000FF00
(0000000036.824306) can0 2B5#0700B20064000000
(0000000036.824550) can0 293#000827FF400007FF
(0000000036.824782) can0 315#0006256300FC6350
(0000000036.825276) can0 2A6#00C600D200C518C6
(0000000036.825515) can0 346#0028C900C804081C
(0000000036.825949) can0 3CF#0000000000000000
(0000000036.826183) can0 3B9#6E38850070148000
(0000000036.826504) can1 4A3#000000000000106A
(0000000036.826717) can0 337#0A403F9191000000
(0000000036.827633) can0 280#00000E0600571E16
(0000000036.828759) can0 215#E3FBC40A6BF793F8
(0000000036.828989) can0 255#89E46E006BFBC3FB
(0000000036.829746) can0 289#000038321A203000
(0000000036.830859) can0 45D#0000000000006F34
(0000000036.831674) can0 20B#C30B87FF20000000
(0000000036.831914) can0 24B#C8C83DF300000000
(0000000036.832150) can0 217#2204018881FF0060
(0000000036.832392) can0 294#7C6BC80180008000
(0000000036.832636) can0 29B#3FF2007020D30000
(0000000036.832882) can0 2CB#0000280007FF87FF
(0000000036.833131) can0 3EB#000062000000FFFE
(0000000036.833377) can0 4F8#00160802080007FD
(0000000036.834883) can0 293#000927FF480007FF
(0000000036.835131) can0 358#00100200000057FE
(0000000036.835378) can0 3D3#000000004C0006E0
(0000000036.835628) can0 3D8#0000000000000000
(0000000036.835866) can0 3F3#1C260587FF7F0080
(0000000036.836752) can0 257#338AED08D8070FE0
(0000000036.836996) can0 397#1000000000376700
(0000000036.837025) can1 080#0308417800093100
(0000000036.837232) can0 2C8#00C000C502C300BD
(0000000036.837693) can0 280#00000F0600471E16
(0000000036.839608) can1 0F0#0000020080030841
(0000000036.839883) can0 2A6#00C600D200C518C6
(0000000036.840583) can1 4B1#0000000000053500
(0000000036.841550) can1 4D4#0058000000120C6F
(0000000036.841919) can0 217#2204018881FF0070
(0000000036.842161) can0 39A#800000000000320E
(0000000036.842398) can0 457#4800096006960082
(0000000036.842638) can0 477#0057015500000000
(0000000036.842890) can0 4FD#0000000000000000
(0000000036.843133) can1 0B8#ECE7F80002D200FF
(0000000036.843136) can0 511#0102200101000000
(0000000036.844077) can1 128#09300202C543E46B
(0000000036.844086) can0 215#E3FBC40A6BF893F8
(0000000036.844316) can0 255#89E46E006BFBC3FB
(0000000036.844558) can0 293#000A27FF500007FF
(0000000036.844797) can0 289#000038321A203000
(0000000036.845025) can0 295#B43D00DDFD3482CB
(0000000036.845059) can1 048#0000000088040101
(0000000036.845269) can0 2B5#0700B20064000000
(0000000036.845501) can0 315#0006256300FC6350
(0000000036.845741) can0 353#02694000000002A6
(0000000036.845976) can0 3B9#6E38850070148000
(0000000036.845986) can1 160#01AC451E05769600
(0000000036.846226) can0 3CF#0000000000000000
(0000000036.846664) can0 20B#C30D87FE24010000
(0000000036.846904) can0 24B#C8C83DF300000000
(0000000036.846952) can1 490#008005F36B000000
(0000000036.847146) can0 294#7C6BC80180008000
(0000000036.847393) can0 2CB#0000280007FF87FF
(0000000036.847639) can0 422#000000000000F160
(0000000036.847879) can0 280#0000000600B71E16
(0000000036.847941) can1 492#0000000000000000
(0000000036.848882) can1 49F#000097972204006A
(0000000036.849825) can1 4BE#00C63ED2C2C500C6
(0000000036.850760) can1 4D2#0100140B0D0E0D08
(0000000036.851651) can0 29B#3FF3007020C30000
(0000000036.851748) can1 4E5#0000000000000000
(0000000036.851898) can0 4F8#0016080207FE07FD
(0000000036.852132) can0 217#2204018881FF0070
(0000000036.852360) can0 257#338AED09D80710E0
(0000000036.852596) can0 2C8#00C000C502C300BD
(0000000036.852748) can1 4E8#8000000000000000
(0000000036.852834) can0 337#0A403F9191000000
(0000000036.853079) can0 397#1000000000376700
(0000000036.853323) can0 437#000000000022FF80
(0000000036.853739) can1 4F9#00F000FE00FC00F8
(0000000036.854883) can0 2A6#00C600D200C518C6
(0000000036.855125) can0 293#000B27FF580007FF
(0000000036.855364) can0 346#0028C900C804081C
(0000000036.855612) can0 358#00100200000057FE
(0000000036.855858) can0 3D3#000000004C0006E0
(0000000036.856108) can0 3D8#0000000000000000
(0000000036.856344) can0 3F3#1C260688FF7F0080
(0000000036.857466) can1 010#007CF80A00F11E16
(0000000036.857642) can0 280#0000010600A71E16
(0000000036.858760) can0 215#E3FBC40A6BF993F9
(0000000036.858842) can1 548#680200040C000000
(0000000036.858991) can0 255#89E46E006BFBC3FB
(0000000036.859237) can0 495#8000000000000000
(0000000036.859765) can0 289#000038321A203000
(0000000036.861691) can0 39A#800000000000320E
(0000000036.861929) can0 20B#C30D87FF28000000
(0000000036.862164) can0 217#2204018881FF0070
(0000000036.862404) can0 24B#C8C83DF300000000
(0000000036.862646) can0 294#7C6BC80180008000
(0000000036.862866) can1 498#03600801C8000000
(0000000036.862892) can0 2CB#0000280007FF87FF
(0000000036.863140) can0 3EB#000062000000FFFE
(0000000036.863383) can0 45D#0000000000006F34
(0000000036.863633) can0 4FB#0000000000000008
(0000000036.863801) can1 49B#1858406100009C02
(0000000036.864087) can0 295#B43E00DCFD3682C9
(0000000036.864331) can0 2B5#0700B20064000000
(0000000036.864573) can0 293#000C27FF600007FF
(0000000036.864768) can1 4A1#000000B40000C001
(0000000036.864805) can0 315#0006256300FC6350
(0000000036.865030) can0 355#FF78786C7897786E
(0000000036.865272) can0 3F5#0600A0003D7E3700
(0000000036.865518) can0 4B5#0500000000070000
(0000000036.865748) can0 4D5#02A7240C60F49228
(0000000036.865982) can0 3B9#6E38850070148000
(0000000036.866232) can0 3CF#0000000000000000
(0000000036.866461) can1 494#1800000441030841
(0000000036.866989) can0 257#338AED0AD80711E0
(0000000036.867225) can0 2C8#00C000C502C300BD
(0000000036.867469) can0 397#1000000000376700
(0000000036.867531) can1 4AA#0000000000000000
(0000000036.867767) can0 280#0000020600971E16
(0000000036.869050) can1 4C9#0000000000000805
(0000000036.869894) can0 2A6#00C600D200C518C6
(0000000036.870038) can1 496#0000000000004000
(0000000036.871035) can1 4D6#0000000000000000
(0000000036.871652) can0 29B#3FF4007020B30000
(0000000036.871898) can0 4F8#0016080207FF07FD
(0000000036.872138) can0 217#2204018881FF0000
(0000000036.872738) can1 4EC#0005123456789012
(0000000036.874038) can0 215#E3FBC40A6BFB93FA
(0000000036.874268) can0 255#89E46E006BFBC3FB
(0000000036.874748) can0 289#000038321A203000
(0000000036.874991) can0 293#000D27FF680007FF
(0000000036.875229) can0 353#02684000000002A6
(0000000036.875477) can0 358#00100200000057FE
(0000000036.875723) can0 3D3#000000004C0006E0
(0000000036.875833) can1 4C7#0000000000001400
(0000000036.875973) can0 3D8#0000000000000000
(0000000036.876211) can0 3F3#1C260789FF7F0080
(0000000036.876464) can0 478#0000000000000000
(0000000036.876838) can0 337#0A403F9191000000
(0000000036.877072) can1 080#0308417800097100
(0000000036.877084) can0 422#000000000000F160
(0000000036.877322) can0 20B#C30E87FF2C000000
(0000000036.877562) can0 24B#C8C83DF300000000
(0000000036.877803) can0 280#0000030600871E16
(0000000036.878047) can0 294#7C6CC80180008000
(0000000036.878293) can0 2CB#0000280007FF87FF
(0000000036.879095) can1 4A6#0800000000000000
(0000000036.881030) can1 4AE#C000000000003F3F
(0000000036.882038) can0 217#2204018881FF0000
(0000000036.882266) can0 257#338AED0BD80712E0
(0000000036.882502) can0 2C8#00C000C502C300BD
(0000000036.882746) can0 397#1000000000376700
(0000000036.882988) can0 39A#800000000000320E
(0000000036.883179) can1 4B3#F000000000910091
(0000000036.883224) can0 457#4800096006960082
(0000000036.883465) can0 477#0057015500000000
(0000000036.883697) can0 4F7#00240053270F527E
(0000000036.883949) can0 4FD#0000000000000000
(0000000036.884193) can0 4FF#00000000CC743609
(0000000036.884423) can0 295#B43000D3FD3182CE
(0000000036.884665) can0 293#000E27FF700007FF
(0000000036.884910) can0 2B5#0700B20064000000
(0000000036.884923) can1 198#2000F4C7F4A9A100
(0000000036.885142) can0 315#0006256300FC6350
(0000000036.885372) can0 2A6#00C600D200C518C6
(0000000036.885610) can0 346#0028C900C804081C
(0000000036.885906) can1 1D0#0001000050001200
(0000000036.885984) can0 3B9#6E38850070148000
(0000000036.886233) can0 3CF#8000000000000000
(0000000036.886889) can1 208#0040000001000030
(0000000036.887651) can0 280#0000040600F71E16
(0000000036.887873) can1 4C2#0000000000000834
(0000000036.888759) can0 215#E3FBC40A6BFB93FB
(0000000036.888989) can0 255#89E46E006BFBC3FB
(0000000036.889745) can0 289#000038321A203000
(0000000036.891659) can0 20B#C30F87FF30000000
(0000000036.891899) can0 217#2204018881FF0000
(0000000036.892140) can0 24B#C8C83DF300000000
(0000000036.892382) can0 294#7C6BC80180008000
(0000000036.892622) can0 29B#3FF5007020A30000
(0000000036.892868) can0 2CB#0000280007FF87FF
(0000000036.893116) can0 3EB#000062000000FFFE
(0000000036.893362) can0 4F8#00160802080007FD
(0000000036.894682) can0 45D#0000000000006F34
(0000000036.894806) can1 048#0000000090040121
(0000000036.894931) can0 293#000027FF000007FF
(0000000036.895179) can0 358#00100200000057FE
(0000000036.895425) can0 3D3#000000004C0006E0
(0000000036.895675) can0 3D8#0000000000000000
(0000000036.895911) can0 3F3#1C26088AFF7F0080
(0000000036.896155) can0 47D#0000000000030841
(0000000036.896707) can0 257#338AED0CD80713E0
(0000000036.896951) can0 397#1000000000376700
(0000000036.897188) can0 2C8#00C000C502C300BD
(0000000036.897712) can0 280#0000050600E71E16
(0000000036.898772) can0 495#8000000000000000
(0000000036.899888) can0 2A6#00C600D200C518C6
(0000000036.900079) can1 49D#0000000000000000
(0000000036.901818) can0 217#220C019081FF0010
(0000000036.902055) can0 337#3B503F9191000000
(0000000036.902297) can0 39A#800000000000320E
(0000000036.902751) can1 010#007CF80A00F11E16
(0000000036.903670) can1 4A8#224178787878EA00
(0000000036.904357) can0 215#E3FBC40A6BFA93FA
(0000000036.904587) can0 255#89E46E006BFBC3FB
(0000000036.904645) can1 0F0#0000020080030841
(0000000036.904825) can0 289#000038321A203000
(0000000036.905071) can0 293#000127FF080007FF
(0000000036.905301) can0 295#B43100D5FD3082CF
(0000000036.905546) can0 2B5#0700B20064000000
(0000000036.905637) can1 4C4#FFFFFFFFFFFFFFFF
(0000000036.905778) can0 315#0006256300FC6350
(0000000036.906016) can0 353#02684000000002A6
(0000000036.906250) can0 3B9#6E38850070148000
(0000000036.906500) can0 3CF#0000000000000000
(0000000036.906738) can0 20B#C31087FF34000000
(0000000036.906979) can0 24B#C8C83DF300000000
(0000000036.907221) can0 294#7C6BC80180008000
(0000000036.907467) can0 2CB#0000280007FF87FF
(0000000036.907548) can1 0B8#ECE7F80002CF00FF
(0000000036.907713) can0 422#000000000000F160
(0000000036.907954) can0 280#0000060600D71E16
(0000000036.908491) can1 128#09300202C543E46B
(0000000036.909419) can1 160#01AC451E05769600
(0000000036.910386) can1 490#008005F36B000000
(0000000036.911658) can0 29B#3FF6007020930000
(0000000036.911904) can0 4F8#0016080207FF07FD
(0000000036.912142) can0 217#2204019081FF0010
(0000000036.912370) can0 257#338AED0DD80714E0
(0000000036.912607) can0 2C8#00C000C502C300BD
(0000000036.912851) can0 397#1000000000376700
(0000000036.914115) can0 355#FF78786C7897786E
(0000000036.914345) can0 4D5#02A7240C60F49228
(0000000036.914875) can0 2A6#00C600D200C518C6
(0000000036.915120) can0 293#000227FF100007FF
(0000000036.915358) can0 346#0028C900C804081C
(0000000036.915606) can0 358#00100200000057FE
(0000000036.915852) can0 3D3#000000004C0006E0
(0000000036.916102) can0 3D8#0000000000000000
(0000000036.916341) can0 3F3#1C26098BFF7F0080
(0000000036.917037) can1 080#0308417800093100
(0000000036.917661) can0 280#0000070600C71E16
(0000000036.918615) can0 215#E3FBC40A6BF993F9
(0000000036.918845) can0 255#89E46E006BFBC3FB
(0000000036.919725) can0 289#000038321A203000
(0000000036.921597) can1 4A3#000000000000106A
(0000000036.921657) can0 20B#C31187FF38000000
(0000000036.921898) can0 24B#C8C83DF300000000
(0000000036.922136) can0 217#2204019081FF0010
(0000000036.922378) can0 294#7C6BC80180008000
(0000000036.922624) can0 2CB#0000280007FF87FF
(0000000036.922866) can0 39A#800000000000320E
(0000000036.923115) can0 3EB#000062000000FFFE
(0000000036.923351) can0 457#4800096006960082
(0000000036.923591) can0 477#0057015500000000
(0000000036.923843) can0 4FD#0000000000000000
(0000000036.924469) can0 295#B43200DAFD2C82D3
(0000000036.924713) can0 293#000327FF180007FF
(0000000036.924958) can0 2B5#0700B20064000000
(0000000036.925000) can1 492#0000000000000000
(0000000036.925190) can0 315#0006256300FC6350
(0000000036.925941) can1 4E1#00AA04017D80DA18
(0000000036.925944) can0 3CF#0000000000000000
(0000000036.926178) can0 3B9#6E38850070148000
(0000000036.926652) can0 45D#0000000000006F34
(0000000036.926882) can0 257#338AED0ED80715E0
(0000000036.927120) can0 337#0A403F9191000000
(0000000036.927357) can0 2C8#00C000C502C300BD
(0000000036.927601) can0 397#1000000000376700
(0000000036.927841) can0 280#0000080600371E16
(0000000036.929800) can1 4CB#0000000500000002
(0000000036.929903) can0 2A6#00C600D200C518C6
(0000000036.930797) can1 4CD#00000000FFFFFFFF
(0000000036.931651) can0 29B#3FF7007020830000
(0000000036.931801) can1 4CF#00000000FFFFFFFF
(0000000036.931898) can0 4F8#0016080207FF07FD
(0000000036.932138) can0 217#2204019081FF0020
(0000000036.932388) can0 4FB#0000000000000008
(0000000036.932765) can1 4F3#14090B101F000000
(0000000036.934010) can0 215#E3FBC40A6BF793F7
(0000000036.934240) can0 255#89E46E006BFBC3FB
(0000000036.934748) can0 289#000038321A203000
(0000000036.934994) can0 293#000427FF200007FF
(0000000036.935235) can0 353#02694000000002A6
(0000000036.935483) can0 358#00100200000057FE
(0000000036.935729) can0 3D3#000000004C0006E0
(0000000036.935979) can0 3D8#0000000000000000
(0000000036.936217) can0 3F3#1C260A8CFF7F0080
(0000000036.936469) can0 478#0000000000000000
(0000000036.936932) can0 422#000000000000F160
(0000000036.937238) can0 20B#C30587FD00020000
(0000000036.937478) can0 24B#C8C83DF300000000
(0000000036.937722) can0 294#7C6CC80180008000
(0000000036.937963) can0 280#0000090600271E16
(0000000036.938209) can0 2CB#0000280007FF87FF
(0000000036.938444) can1 048#0000000090040101
(0000000036.938959) can0 495#8000000000000000
(0000000036.939378) can1 49F#000097972114006A
(0000000036.941747) can0 39A#800000000000320E
(0000000036.941983) can0 217#2114019081FF0020
(0000000036.942220) can0 257#338AED00D80707E0
(0000000036.942456) can0 2C8#00C000C502C300BD
(0000000036.942700) can0 397#1000000000376700
(0000000036.942889) can1 498#03600801C8000000
(0000000036.942932) can0 4F7#00240053270F527E
(0000000036.943172) can0 4FF#00000000CC74360A
(0000000036.943825) can1 49B#1858406100009C02
(0000000036.944042) can0 295#B43300DFFD2882D7
(0000000036.944286) can0 2B5#0700B20064000000
(0000000036.944518) can0 315#0006256300FC6350
(0000000036.944763) can0 293#000527FF280007FF
(0000000036.944792) can1 4A1#000000B40000C001
(0000000036.945131) can0 2A6#00C600D200C518C6
(0000000036.945369) can0 346#0028C900C804081C
(0000000036.945959) can0 3CF#0000000000000000
(0000000036.946194) can0 3B9#6E38850070148000
(0000000036.946341) can1 494#1800000441030841
(0000000036.947524) can1 010#007CF80A00F11E16
(0000000036.947672) can0 280#00000A0600171E16
(0000000036.948732) can0 215#E3FBC40A6BF793F7
(0000000036.948962) can0 255#89E46E006BFBC3FB
(0000000036.949156) can1 496#0000000000004000
(0000000036.949746) can0 289#000038321A203000
(0000000036.950436) can1 198#2000F4C7F4A9A100
(0000000036.951419) can1 1D0#0001000050001200
(0000000036.951654) can0 20B#C30487FF04000000
(0000000036.951894) can0 24B#C8C83DF300000000
(0000000036.952133) can0 217#2104019081FF0020
(0000000036.952375) can0 294#7C6BC80180008000
(0000000036.952419) can1 208#0040000001000000
(0000000036.952617) can0 29B#3FF8007020730000
(0000000036.952863) can0 2CB#0000280007FF87FF
(0000000036.953101) can0 337#0A403F9191000000
(0000000036.953350) can0 3EB#000062000000FFFE
(0000000036.953596) can0 4F8#0016080207FF07FD
(0000000036.953840) can0 501#1102200101000000
(0000000036.954896) can0 293#000627FF300007FF
(0000000036.955144) can0 358#00100200000057FE
(0000000036.955390) can0 3D3#000000004C0006E0
(0000000036.955641) can0 3D8#0000000000000000
(0000000036.955877) can0 3F3#1C260B8DFF7F0080
(0000000036.956691) can0 257#338AED01D80708E0
(0000000036.956929) can0 397#1000000000376700
(0000000036.957007) can1 080#0308417800093100
(0000000036.957165) can0 2C8#00C000C502C300BD
(0000000036.957714) can0 280#00000B0600071E16
(0000000036.958865) can0 45D#0000000000006F34
(0000000036.959894) can0 2A6#00C600D200C518C6
(0000000036.961591) can1 568#7212000068000000
(0000000036.961984) can0 217#2104019081FF0030
(0000000036.962226) can0 39A#800000000000320E
(0000000036.962470) can0 400#1200000202010102
(0000000036.962704) can0 405#0244310033030841
(0000000036.962937) can0 407#1620AA6AAAA60100
(0000000036.963173) can0 457#4800096006960082
(0000000036.963413) can0 477#0057015500000000
(0000000036.963665) can0 4FD#0000000000000000
(0000000036.964099) can0 215#E3FBC4096BF693F6
(0000000036.964329) can0 255#89E46E006BFBC3FB
(0000000036.964574) can0 293#000727FF380007FF
(0000000036.964812) can0 289#000038321A203000
(0000000036.965044) can0 295#B43400DBFD2D82D2
(0000000036.965288) can0 2B5#0700B20064000000
(0000000036.965520) can0 315#0006256300FC6350
(0000000036.965761) can0 353#02694000000002A6
(0000000036.965985) can0 355#FF78786C7897786E
(0000000036.966219) can0 3B9#6E38850070148000
(0000000036.966469) can0 3CF#0000000000000000
(0000000036.966709) can0 20B#C30587FF08000000
(0000000036.966949) can0 24B#C8C83DF300000000
(0000000036.967192) can0 294#7C6BC80180008000
(0000000036.967438) can0 2CB#0000280007FF87FF
(0000000036.967684) can0 422#000000000000F160
(0000000036.967724) can1 0F0#0000020080030841
(0000000036.967924) can0 280#00000C0600771E16
(0000000036.968171) can0 4B5#0500000000070000
(0000000036.968401) can0 4D5#02AB240C60F49228
(0000000036.968699) can1 4B1#0000000000053500
(0000000036.971657) can0 29B#3FF9007020630000
(0000000036.971903) can0 4F8#00160802080007FE
(0000000036.972141) can0 217#2104019081FF0030
(0000000036.972371) can0 257#338AED02D80709E0
(0000000036.972608) can0 2C8#00C000C502C300BD
(0000000036.972852) can0 397#1000000000376700
(0000000036.972939) can1 0B8#ECE7F80002D200FF
(0000000036.973882) can1 128#09300202C543E46B
(0000000036.974809) can1 160#01AC451E05769600
(0000000036.974880) can0 2A6#00C600D200C518C6
(0000000036.975124) can0 293#000827FF400007FF
(0000000036.975363) can0 346#0028C900C804081C
(0000000036.975611) can0 358#00100200000057FE
(0000000036.975776) can1 490#008005F36B000000
(0000000036.975857) can0 3D3#000000004C0006E0
(0000000036.976107) can0 3D8#0000000000000000
(0000000036.976343) can0 3F3#1C260C8EFF7F0080
(0000000036.976720) can1 4BE#00C63ED2C2C500C6
(0000000036.976859) can0 337#0A403F9191000000
(0000000036.977683) can0 280#00000D0600671E16
(0000000036.978373) can1 4AA#0000000000000000
(0000000036.978737) can0 215#E3FBC4096BF693F6
(0000000036.978968) can0 255#89E46E006BFBC3FB
(0000000036.979214) can0 495#8000000000000000
(0000000036.979372) can1 4A6#0800000000000000
(0000000036.979766) can0 289#000038321A203000
(0000000036.981694) can0 20B#C30687FF0C000000
(0000000036.981820) can1 4C2#0000000000000834
(0000000036.981932) can0 217#2104019081FF0030
(0000000036.982173) can0 24B#C8C83DF300000000
(0000000036.982417) can0 294#7C6CC80180008000
(0000000036.982663) can0 2CB#0000280007FF87FF
(0000000036.982905) can0 39A#800000000000320E
(0000000036.983153) can0 3EB#000062000000FFFE
(0000000036.983394) can0 4BA#A000241230303000
(0000000036.984026) can0 295#B43500D7FD3282CD
(0000000036.984270) can0 2B5#0700B20064000000
(0000000036.984514) can0 293#000927FF480007FF
(0000000036.984746) can0 315#0006256300FC6350
(0000000036.984855) can1 048#0000000090040101
(0000000036.985832) can0 3CF#8000000000000000
(0000000036.986067) can0 3B9#6E38850070148000
(0000000036.986761) can0 257#348AED03D8070AE0
(0000000036.987005) can0 397#1000000000376700
(0000000036.987241) can0 2C8#00C000C502C300BD
(0000000036.987746) can0 280#00000E0600571E16
(0000000036.989896) can0 2A6#00C600D200C518C6
(0000000036.990551) can1 4C9#0000000000000805
(0000000036.990622) can0 45D#0000000000006F34
(0000000036.991542) can1 49D#0000000000000000
(0000000036.991668) can0 29B#3FFA007020530000
(0000000036.991904) can0 217#2104019081FF0040
(0000000036.992150) can0 4F8#00160802080107FE
(0000000036.992870) can1 010#007CF80A00F11E16
(0000000036.993861) can1 400#1600000200000000
(0000000036.994208) can0 215#E3FBC4096BF693F6
(0000000036.994438) can0 255#89E46E006BFBC3FB
(0000000036.994749) can0 289#000038321A203000
(0000000036.994788) can1 401#024D414D45344141
(0000000036.994991) can0 293#000A27FF500007FF
(0000000036.995231) can0 353#02694000000002A6
(0000000036.995479) can0 358#00100200000057FE
(0000000036.995723) can1 405#0244310033030841
(0000000036.995726) can0 3D3#000000004C0006E0
(0000000036.995976) can0 3D8#0000000000000000
(0000000036.996214) can0 3F3#1C260D8FFF7F0080
(0000000036.996466) can0 478#0000000000000000
(0000000036.996643) can1 4A8#224178787878EA00
(0000000036.996936) can0 422#000000000000F160
(0000000036.997296) can0 20B#C30787FF10000000
(0000000036.997536) can0 24B#C8C83DF300000000
(0000000036.997593) can1 080#0308417800093100
(0000000036.997777) can0 280#00000F0600471E16
(0000000036.998021) can0 294#7C6CC80180008000
(0000000036.998267) can0 2CB#0000280007FF87FF
(0000000036.998582) can1 492#0000000000000000
(0000000036.999573) can1 4C4#FFFFFFFFFFFFFFFF
(0000000037.000556) can1 4C7#0000000000001400
(0000000037.001667) can0 4FB#0000000000000008
(0000000037.001910) can0 39A#800000000000320E
(0000000037.002146) can0 217#2104019081FF0040
(0000000037.002378) can0 257#338AED04D8070BE0
(0000000037.002614) can0 2C8#00C000C502C300BD
(0000000037.002852) can0 337#0A403F9191000000
(0000000037.003097) can0 397#1000000000376700
(0000000037.003341) can0 437#000000000022FF80
(0000000037.003577) can0 457#4800096006960082
(0000000037.003817) can0 477#0057015600000000
(0000000037.004049) can0 4F7#00240053270F527E
(0000000037.004280) can0 295#B43600D8FD3282CD
(0000000037.004524) can0 2B5#0700B20064000000
(0000000037.004766) can0 293#000B27FF580007FF
(0000000037.004998) can0 315#0006256300FC6350
(0000000037.005015) can1 4B3#F000000000910091
(0000000037.005250) can0 4FD#0000000000000000
(0000000037.005480) can0 2A6#00C600D200C518C6
(0000000037.005719) can0 346#0028C900C804081C
(0000000037.005959) can0 4FF#00000000CC74360A
(0000000037.006062) can1 4AE#C000000000003F3F
(0000000037.006193) can0 3B9#6E38850070148000
(0000000037.006443) can0 3CF#0000000000000000
(0000000037.007693) can0 280#0000000600B71E16
(0000000037.008841) can0 215#E3FBC4096BFA93FA
(0000000037.009071) can0 255#89E46E006BFBC3FB
(0000000037.009745) can0 289#000038321A203000
(0000000037.011656) can0 20B#C30887FF14000000
(0000000037.011896) can0 24B#C8C83DF300000000
(0000000037.012132) can0 217#2104019081FF0040
(0000000037.012374) can0 294#7C6BC80180008000
(0000000037.012616) can0 29B#3FFB007020430000
(0000000037.012862) can0 2CB#0000280007FF87FF
(0000000037.013111) can0 3EB#000062000000FFFE
(0000000037.013357) can0 4F8#00160802080107FE
(0000000037.014023) can0 355#FF78786C7897786E
(0000000037.014253) can0 4D5#02AB240C60F49228
(0000000037.014897) can0 293#000C27FF600007FF
(0000000037.015145) can0 358#00100200000057FE
(0000000037.015391) can0 3D3#000000004C0006E0
(0000000037.015642) can0 3D8#0000000000000000
(0000000037.015785) can1 198#2000F4C7F4A9A100
(0000000037.015878) can0 3F3#1C260E90FF7F0080
(0000000037.016756) can0 257#338AED05D8070CE0
(0000000037.016768) can1 1D0#0001000050001200
(0000000037.017000) can0 397#1000000000376700
(0000000037.017236) can0 2C8#00C000C502C300BD
(0000000037.017751) can1 208#0040000001000030
(0000000037.017754) can0 280#0000010600A71E16
(0000000037.018734) can1 4A3#000000000000106A
(0000000037.018770) can0 495#8000000000000000
(0000000037.019899) can0 2A6#00C600D200C518C6
(0000000037.021857) can0 217#2104019081FF0050
(0000000037.022099) can0 39A#800000000000320E
(0000000037.022597) can0 45D#0000000000006F34
(0000000037.022806) can1 498#03600801C8000000
(0000000037.023741) can1 49B#1858406100009C02
(0000000037.024003) can0 215#E3FBC4096BF993F9
(0000000037.024233) can0 255#89E46E006BFBC3FB
(0000000037.024461) can0 295#B43700D7FD3482CB
(0000000037.024704) can0 293#000D27FF680007FF
(0000000037.024708) can1 4A1#000000B40000C001
(0000000037.024942) can0 289#000038321A203000
(0000000037.025186) can0 2B5#0700B20064000000
(0000000037.025418) can0 315#0006256300FC6350
(0000000037.025636) can1 4E3#9709F0022505C5ED
(0000000037.025657) can0 353#02684000000002A6
(0000000037.025935) can0 3CF#0000000000000000
(0000000037.026169) can0 3B9#6E38850070148000
(0000000037.026601) can1 494#1800000441030841
(0000000037.026665) can0 20B#C30987FF18000000
(0000000037.026905) can0 24B#C8C83DF300000000
(0000000037.027147) can0 294#7C6BC80180008000
(0000000037.027394) can0 2CB#0000280007FF87FF
(0000000037.027630) can0 337#3B503F9191000000
(0000000037.027870) can0 280#0000020600971E16
(0000000037.028116) can0 422#000000000000F160
(0000000037.028317) can1 048#0000000090040101
(0000000037.029305) can1 496#0000000000004000
(0000000037.030247) can1 49F#000097972104006A
(0000000037.031244) can1 4D6#0000000000000000
(0000000037.031657) can0 29B#3FFC007020330000
(0000000037.031903) can0 4F8#00160802080007FD
(0000000037.032137) can0 217#2104019081FF0050
(0000000037.032218) can1 0F0#0000020080030841
(0000000037.032367) can0 257#338AED06D8070DE0
(0000000037.032603) can0 2C8#00C000C502C300BD
(0000000037.032847) can0 397#1000000000376700
(0000000037.033185) can1 4D4#0058000000120C6F
(0000000037.034884) can0 2A6#00C600D200C518C6
(0000000037.035126) can0 293#000E27FF700007FF
(0000000037.035365) can0 346#0028C900C804081C
(0000000037.035613) can0 358#00100200000057FE
(0000000037.035859) can0 3D3#000000004C0006E0
(0000000037.036109) can0 3D8#0000000000000000
(0000000037.036347) can0 3F3#1C260082FF7F0080
(0000000037.037030) can1 080#0308417800093100
(0000000037.037701) can0 280#0000030600871E16
(0000000037.037982) can1 010#007CF80A00F11E16
(0000000037.038625) can0 215#E3FBC4096BF993F9
(0000000037.038856) can0 255#89E46E006BFBC3FB
(0000000037.038925) can1 0B8#ECE7F80002CB00FF
(0000000037.039728) can0 289#000038321A203000
(0000000037.039868) can1 128#09300202C543E46B
(0000000037.040795) can1 160#01AC451E05769600
(0000000037.041658) can0 20B#C30A87FF1C000000
(0000000037.041761) can1 490#008005F36B000000
(0000000037.041898) can0 24B#C8C83DF300000000
(0000000037.042132) can0 217#2104019081FF0050
(0000000037.042377) can0 294#7C6CC80180008000
(0000000037.042623) can0 2CB#0000280007FF87FF
(0000000037.042697) can1 4D2#0100140B0D0E0D08
(0000000037.042865) can0 39A#800000000000320E
(0000000037.043113) can0 3EB#000062000000FFFE
(0000000037.043349) can0 457#4800096006960082
(0000000037.043590) can0 477#0057015600000000
(0000000037.043691) can1 4CB#0000000500000002
(0000000037.043842) can0 4FD#0000000000000000
(0000000037.044072) can0 295#B43800D8FD3482CB
(0000000037.044316) can0 2B5#0700B20064000000
(0000000037.044564) can0 293#000027FF000007FF
(0000000037.044685) can1 4CD#00000000FFFFFFFF
(0000000037.044797) can0 315#0006256300FC6350
(0000000037.045689) can1 4CF#00000000FFFFFFFF
(0000000037.045891) can0 3CF#0000000000000000
(0000000037.046125) can0 3B9#6E38850070148000
(0000000037.046695) can1 4DA#0000000000000000
(0000000037.046829) can0 257#348AED07D8070EE0
(0000000037.047073) can0 397#1000000000376700
(0000000037.047309) can0 2C8#00C000C502C300BD
(0000000037.047678) can1 4DD#0101000000000000
(0000000037.047764) can0 280#0000040600F71E16
(0000000037.048660) can1 4DF#FF0000020000FF00
(0000000037.049603) can1 4F5#0463008C20004D00
(0000000037.049902) can0 2A6#00C600D200C518C6
(0000000037.050562) can1 4F7#0000003000030841
(0000000037.051646) can0 29B#3FFD007020230000
(0000000037.051885) can0 217#2104019081FF0060
(0000000037.052123) can0 337#0A403F9191000000
(0000000037.052369) can0 4F8#00160802080107FE
(0000000037.053973) can0 215#E3FAC40A6BFA93FA
(0000000037.054203) can0 255#89E46E006BFAC3FA
(0000000037.054593) can0 45D#0000000000006F34
(0000000037.054831) can0 289#000038321A203000
(0000000037.055077) can0 293#000127FF080007FF
(0000000037.055318) can0 353#02694000000002A6
(0000000037.055566) can0 358#00100200000057FE
(0000000037.055812) can0 3D3#000000004C0006E0
(0000000037.056062) can0 3D8#0000000000000000
(0000000037.056302) can0 3F3#1C260183FF7F0080
(0000000037.056554) can0 478#0000000000000000
(0000000037.056943) can0 422#000000000000F160
(0000000037.057247) can0 20B#C30B87FF20000000
(0000000037.057487) can0 24B#C8C83DF300000000
(0000000037.057731) can0 294#7C6CC80180008000
(0000000037.057969) can0 280#0000050600E71E16
(0000000037.058216) can0 2CB#0000280007FF87FF
(0000000037.058744) can0 495#8000000000000000
(0000000037.061762) can0 39A#800000000000320E
(0000000037.062000) can0 217#2104019081FF0060
(0000000037.062230) can0 257#338AED08D8070FE0
(0000000037.062467) can0 2C8#00C000C502C300BD
(0000000037.062711) can0 397#1000000000376700
(0000000037.062943) can0 4F7#00240053270F527E
(0000000037.063183) can0 4FF#00000000CC74360B
(0000000037.063427) can0 511#0102200101000000
(0000000037.064435) can1 572#0112000072000000
(0000000037.064438) can0 295#B43900DCFD3182CE
(0000000037.064680) can0 293#000227FF100007FF
(0000000037.064924) can0 2B5#0700B20064000000
(0000000037.065156) can0 315#0006256300FC6350
(0000000037.065386) can0 2A6#00C600D200C518C6
(0000000037.065624) can0 346#0028C900C804081C
(0000000037.065849) can0 355#FF78786C7897786E
(0000000037.066083) can0 3B9#6E38850070148000
(0000000037.066333) can0 3CF#0000000000000000
(0000000037.066576) can0 3F5#0600A2003D7D3700
(0000000037.066818) can0 4B5#0500000000070000
(0000000037.067048) can0 4D5#02AB240C60F49228
(0000000037.067712) can0 280#0000060600D71E16
(0000000037.068702) can0 215#E3FAC40A6BFA93FA
(0000000037.068932) can0 255#89E46E006BFAC3FA
(0000000037.069744) can0 289#000038321A203000
(0000000037.071661) can0 20B#C30C87FF24000000
(0000000037.071901) can0 24B#C8C83DF300000000
(0000000037.072139) can0 217#2104019081FF0060
(0000000037.072383) can0 294#7C6CC80180008000
(0000000037.072625) can0 29B#3FFE007020130000
(0000000037.072872) can0 2CB#0000280007FF87FF
(0000000037.073120) can0 3EB#000062000000FFFE
(0000000037.073366) can0 4F8#00160802080007FD
(0000000037.073616) can0 4FB#0000000000000008
(0000000037.074912) can0 293#000327FF180007FF
(0000000037.075160) can0 358#00100200000057FE
(0000000037.075407) can0 3D3#000000004C0006E0
(0000000037.075657) can0 3D8#0000000000000000
(0000000037.075895) can0 3F3#1C260284FF7F0080
(0000000037.076745) can0 257#338AED09D80710E0
(0000000037.076803) can1 4C2#0000000000000834
(0000000037.076983) can0 337#0A403F9191000000
(0000000037.077228) can0 397#1000000000376700
(0000000037.077464) can0 2C8#00C000C502C300BD
(0000000037.077750) can1 080#0308417800093100
(0000000037.077834) can0 280#0000070600C71E16
(0000000037.078732) can1 048#0000000090040101
(0000000037.079721) can1 492#0000000000000000
(0000000037.079918) can0 2A6#00C600D200C518C6
(0000000037.080720) can1 4A6#0800000000000000
(0000000037.081656) can1 198#2000F4C7F4A9A100
(0000000037.081953) can0 217#2104019081FF0070
(0000000037.082195) can0 39A#800000000000320E
(0000000037.082431) can0 457#4800096006960082
(0000000037.082639) can1 1D0#0001000050001200
(0000000037.082671) can0 477#0057015600000000
(0000000037.082923) can0 4FD#0000000000000000
(0000000037.083591) can1 010#007CF80A00F11E16
(0000000037.084433) can0 215#E3FAC40A6BF993F9
(0000000037.084590) can1 208#0040000001000000
(0000000037.084663) can0 255#89E46E006BFAC3FA
(0000000037.084902) can0 289#000038321A203000
(0000000037.085148) can0 293#000427FF200007FF
(0000000037.085376) can0 295#B43A00E1FD2D82D2
(0000000037.085581) can1 49D#0000000000000000
(0000000037.085620) can0 2B5#0700B20064000000
(0000000037.085852) can0 315#0006256300FC6350
(0000000037.086092) can0 353#02694000000002A6
(0000000037.086327) can0 3B9#6E38850070148000
(0000000037.086500) can1 4A8#224178787878EA00
(0000000037.086575) can0 3CF#8000000000000000
(0000000037.086813) can0 20B#C30E87FE28010000
(0000000037.087053) can0 24B#C8C83DF300000000
(0000000037.087298) can0 294#7C6CC80180008000
(0000000037.087491) can1 4C4#FFFFFFFFFFFFFFFF
(0000000037.087544) can0 2CB#0000280007FF87FF
(0000000037.087790) can0 422#000000000000F160
(0000000037.088030) can0 280#0000080600371E16
(0000000037.088272) can0 45D#0000000000006F34
(0000000037.088481) can1 4E5#0000000000000000
(0000000037.091663) can0 29B#3FFF007020030000
(0000000037.091909) can0 4F8#00160802080007FD
(0000000037.092145) can0 217#2104019081FF0070
(0000000037.092373) can0 257#348AED0AD80711E0
(0000000037.092609) can0 2C8#00C000C502C300BD
(0000000037.092853) can0 397#1000000000376700
(0000000037.094890) can0 2A6#00C600D200C518C6
(0000000037.095134) can0 293#000527FF280007FF
(0000000037.095372) can0 346#0028C900C804081C
(0000000037.095390) can1 4AA#0000000000000000
(0000000037.095620) can0 358#00100200000057FE
(0000000037.095866) can0 3D3#000000004C0006E0
(0000000037.096117) can0 3D8#0000000000000000
(0000000037.096348) can1 0F0#0000820080030841
(0000000037.096355) can0 3F3#1C260385FF7F0080
(0000000037.097323) can1 4B1#0000000000053500
(0000000037.097723) can0 280#0000090600271E16
(0000000037.098265) can1 4E1#00AA04017D00DA18
(0000000037.098909) can0 215#E3FAC40A6BFA93F9
(0000000037.099139) can0 255#89E46E006BFAC3FA
(0000000037.099254) can1 4EA#000000FBFB000000
(0000000037.099385) can0 495#8000000000000000
(0000000037.099765) can0 289#000038321A203000
(0000000037.101692) can0 20B#C30E87FF2C000000
(0000000037.101932) can0 24B#C8C83DF300000000
(0000000037.102168) can0 217#2104019081FF0070
(0000000037.102410) can0 294#7C6BC80180008000
(0000000037.102656) can0 2CB#0000280007FF87FF
(0000000037.102894) can0 337#0A403F9191000000
(0000000037.103069) can1 0B8#ECE7F80002D200FF
(0000000037.103137) can0 39A#800000000000320E
(0000000037.103385) can0 3EB#000062000000FFFE
(0000000037.103997) can0 295#B43B00E4FD2B82D4
(0000000037.104013) can1 128#09300202C543E46B
(0000000037.104241) can0 2B5#0700B20064000000
(0000000037.104473) can0 315#0006256300FC6350
(0000000037.104715) can0 293#000627FF300007FF
(0000000037.104940) can1 160#01AC451E05769600
(0000000037.105865) can0 3CF#0000000000000000
(0000000037.105907) can1 490#008005F36B000000
(0000000037.106100) can0 3B9#6E38850070148000
(0000000037.106760) can0 257#338AED0BD80712E0
(0000000037.106873) can1 494#1800000441030841
(0000000037.107004) can0 397#1000000000376700
(0000000037.107240) can0 2C8#00C000C502C300BD
(0000000037.107782) can0 280#00000A0600171E16
(0000000037.107840) can1 498#03600801C8000000
(0000000037.108828) can1 496#0000000000004000
(0000000037.109763) can1 49B#1858406100009C02
(0000000037.109907) can0 2A6#00C600D200C518C6
(0000000037.110730) can1 4A1#000000B40000C001
(0000000037.111647) can0 29B#3FF1007020E30000
(0000000037.111713) can1 4A3#000000000000106A
(0000000037.111893) can0 4F8#0016080207FF07FD
(0000000037.112134) can0 217#2104019081FF0000
(0000000037.112656) can1 4BE#00C63ED2C2C500C6
(0000000037.113656) can1 4E8#8000000000000000
(0000000037.113973) can0 215#E3FAC40A6BF893F8
(0000000037.114203) can0 255#89E46E006BFAC3FA
(0000000037.114428) can0 355#FF78786C7897786E
(0000000037.114639) can1 4C9#0000000000000805
(0000000037.114658) can0 4D5#02AB240C60F49228
(0000000037.114896) can0 289#000038321A203000
(0000000037.115140) can0 293#000727FF380007FF
(0000000037.115380) can0 353#02694000000002A6
(0000000037.115629) can0 358#00100200000057FE
(0000000037.115875) can0 3D3#000000004C0006E0
(0000000037.116125) can0 3D8#0000000000000000
(0000000037.116363) can0 3F3#1C260486FF7F0080
(0000000037.116622) can0 478#0000000000000000
(0000000037.116861) can0 422#000000000000F160
(0000000037.116933) can1 080#0308417800093100
(0000000037.117298) can0 20B#C30F87FF30000000
(0000000037.117538) can0 24B#C8C83DF300000000
(0000000037.117780) can0 294#7C6BC80180008000
(0000000037.118020) can0 280#00000B0600071E16
(0000000037.118267) can0 2CB#0000280007FF87FF
(0000000037.118573) can0 45D#0000000000006F34
(0000000037.122019) can0 217#2104019081FF0000
(0000000037.122251) can0 257#338AED0CD80713E0
(0000000037.122405) can1 4C7#0000000000001400
(0000000037.122487) can0 2C8#00C000C502C300BD
(0000000037.122731) can0 397#1000000000376700
(0000000037.122973) can0 39A#800000000000320E
(0000000037.123210) can0 457#4800096006960082
(0000000037.123450) can0 477#0057015600000000
(0000000037.123682) can0 4F7#00240053270F527E
(0000000037.123934) can0 4FD#0000000000000000
(0000000037.124164) can0 295#B43C00E7FD2982D6
(0000000037.124408) can0 2B5#0700B20064000000
(0000000037.124652) can0 293#000827FF400007FF
(0000000037.124705) can1 048#0000000090040101
(0000000037.124885) can0 315#0006256300FC6350
(0000000037.125125) can0 4FF#00000000CC74360C
(0000000037.125355) can0 2A6#00C600D200C518C6
(0000000037.125593) can0 346#0028C900C804081C
(0000000037.125646) can1 49F#000097972104006A
(0000000037.126017) can0 3CF#0000000000000000
(0000000037.126252) can0 3B9#6E38850070148000
(0000000037.126724) can0 337#0A403F9191000000
(0000000037.127621) can1 010#007CF80A00F11E16
(0000000037.127732) can0 280#00000C0600771E16
(0000000037.128580) can1 4B3#F000000000910091
(0000000037.128696) can0 215#E3FAC40A6BF793F7
(0000000037.128926) can0 255#89E46E006BFAC3FA
(0000000037.129746) can0 289#000038321A203000
(0000000037.131043) can1 4AE#C000000000003F3F
(0000000037.131659) can0 20B#C31087FF34000000
(0000000037.131899) can0 24B#C8C83DF300000000
(0000000037.132139) can0 217#2104019081FF0000
(0000000037.132383) can0 294#7C6CC80180008000
(0000000037.132627) can0 29B#3FF2007020D30000
(0000000037.132874) can0 2CB#0000280007FF87FF
(0000000037.133122) can0 3EB#000062000000FFFE
(0000000037.133368) can0 4F8#0016080207FF07FD
(0000000037.134900) can0 293#000927FF480007FF
(0000000037.135148) can0 358#00100200000057FE
(0000000037.135395) can0 3D3#000000004C0006E0
(0000000037.135645) can0 3D8#0000000000000000
(0000000037.135883) can0 3F3#1C260587FF7F0080
(0000000037.136683) can0 257#338AED0DD80714E0
(0000000037.136927) can0 397#1000000000376700
(0000000037.137163) can0 2C8#00C000C502C300BD
(0000000037.137736) can0 280#00000D0600671E16
(0000000037.138714) can0 495#8000000000000000
(0000000037.139908) can0 2A6#00C600D200C518C6
(0000000037.141694) can0 4FB#0000000000000008
(0000000037.141935) can0 217#2104019081FF0010
(0000000037.142237) can0 39A#800000000000320E
(0000000037.143961) can0 215#E3FAC40A6BF693F6
(0000000037.144191) can0 255#89E46E006BFAC3FA
(0000000037.144421) can0 295#B43D00E4FD2D82D2
(0000000037.144663) can0 293#000A27FF500007FF
(0000000037.144901) can0 289#000038321A203000
(0000000037.145145) can0 2B5#0700B20064000000
(0000000037.145378) can0 315#0006256300FC6350
(0000000037.145618) can0 353#02694000000002A6
(0000000037.145932) can0 3CF#0000000000000000
(0000000037.146166) can0 3B9#6E38850070148000
(0000000037.146639) can1 198#2000F4C7F4A9A100
(0000000037.146666) can0 20B#C31187FF38000000
(0000000037.146907) can0 24B#C8C83DF300000000
(0000000037.147151) can0 294#7C6CC80180008000
(0000000037.147397) can0 2CB#0000280007FF87FF
(0000000037.147623) can1 1D0#0001000050001200
(0000000037.147643) can0 422#000000000000F160
(0000000037.147885) can0 280#00000E0600571E16
(0000000037.148606) can1 208#0040000001000030
(0000000037.150607) can0 45D#0000000000006F34
(0000000037.150851) can0 47D#0000000000030841
(0000000037.151685) can0 29B#3FF3007020C30000
(0000000037.151931) can0 4F8#00160802080007FD
(0000000037.152171) can0 217#2104019081FF0010
(0000000037.152400) can0 257#348AED0ED80715E0
(0000000037.152636) can0 2C8#00C000C502C300BD
(0000000037.152872) can0 337#3B503F9191000000
(0000000037.153116) can0 397#1000000000376700
(0000000037.153360) can0 437#000000000022FF80
(0000000037.153830) can1 492#0000000000000000
(0000000037.154907) can0 2A6#00C600D200C518C6
(0000000037.155149) can0 293#000B27FF580007FF
(0000000037.155387) can0 346#0028C900C804081C
(0000000037.155636) can0 358#00100200000057FE
(0000000037.155882) can0 3D3#000000004C0006E0
(0000000037.156132) can0 3D8#0000000000000000
(0000000037.156368) can0 3F3#1C260688FF7F0080
(0000000037.156851) can1 080#0308417800097100
(0000000037.157742) can0 280#00000F0600471E16
(0000000037.158576) can0 215#E3FAC40A6BF693F6
(0000000037.158724) can1 4CB#0000000500000002
(0000000037.158806) can0 255#89E46E006BFAC3FA
(0000000037.159699) can1 0F0#0000020080030841
(0000000037.159725) can0 289#000038321A203000
(0000000037.160696) can1 4CD#00000000FFFFFFFF
(0000000037.161661) can0 20B#C30387FF00000000
(0000000037.161700) can1 4CF#00000000FFFFFFFF
(0000000037.161901) can0 24B#C8C83DF300000000
(0000000037.162141) can0 217#2104019081FF0010
(0000000037.162383) can0 294#7C6BC80180008000
(0000000037.162630) can0 2CB#0000280007FF87FF
(0000000037.162872) can0 39A#800000000000320E
(0000000037.162940) can1 4EC#0006123456789012
(0000000037.163120) can0 3EB#000062000000FFFE
(0000000037.163356) can0 457#4800096006960082
(0000000037.163596) can0 477#0057015600000000
(0000000037.163849) can0 4FD#0000000000000000
(0000000037.164091) can0 295#B43E00E6FD2C82D3
(0000000037.164335) can0 2B5#0700B20064000000
(0000000037.164577) can0 293#000C27FF600007FF
(0000000037.164809) can0 315#0006256300FC6350
(0000000037.165033) can0 355#FF78786C7897786E
(0000000037.165280) can0 4B5#0500000000070000
(0000000037.165510) can0 4D5#02AB240C60F49228
(0000000037.165956) can0 3CF#0000000000000000
(0000000037.166190) can0 3B9#6E38850070148000
(0000000037.166970) can0 257#338AED00D80707E0
(0000000037.167207) can0 2C8#00C000C502C300BD
(0000000037.167451) can0 397#1000000000376700
(0000000037.167817) can0 280#0000000600B71E16
(0000000037.167955) can1 0B8#ECE7F80002D300FF
(0000000037.168937) can1 048#0000000090040101
(0000000037.169880) can1 128#09300202C543E46B
(0000000037.169921) can0 2A6#00C600D200C518C6
(0000000037.170807) can1 160#01AC451E05769600
(0000000037.171652) can0 29B#3FF4007020B30000
(0000000037.171775) can1 490#008005F36B000000
(0000000037.171898) can0 4F8#00160802080007FE
(0000000037.172136) can0 217#2104019081FF0020
(0000000037.172380) can0 501#1102200101000000
(0000000037.172766) can1 49D#0000000000000000
(0000000037.173717) can1 010#007CF80A00F11E16
(0000000037.174330) can0 215#E3FAC40A6BF793F7
(0000000037.174560) can0 255#89E46E006BFAC3FA
(0000000037.174636) can1 4A8#224178787878EA00
(0000000037.174798) can0 289#000038321A203000
(0000000037.175041) can0 293#000D27FF680007FF
(0000000037.175281) can0 353#02694000000002A6
(0000000037.175529) can0 358#00100200000057FE
(0000000037.175620) can1 4C2#0000000000000834
(0000000037.175775) can0 3D3#000000004C0006E0
(0000000037.176025) can0 3D8#0000000000000000
(0000000037.176263) can0 3F3#1C260789FF7F0080
(0000000037.176516) can0 478#0000000000000000
(0000000037.176612) can1 4C4#FFFFFFFFFFFFFFFF
(0000000037.176948) can0 422#000000000000F160
(0000000037.177186) can0 337#0A403F9191000000
(0000000037.177428) can0 20B#C30487FF04000000
(0000000037.177587) can1 501#0302200101000000
(0000000037.177668) can0 24B#C8C83DF300000000
(0000000037.177909) can0 280#0000010600A71E16
(0000000037.178151) can0 294#7C6BC80180008000
(0000000037.178397) can0 2CB#0000280007FF87FF
(0000000037.178723) can0 495#8000000000000000
(0000000037.179210) can1 4A6#0800000000000000
(0000000037.181915) can0 217#2104019081FF0020
(0000000037.182146) can0 257#338AED01D80708E0
(0000000037.182382) can0 2C8#00C000C502C300BD
(0000000037.182626) can0 397#1000000000376700
(0000000037.182868) can0 39A#800000000000320E
(0000000037.182874) can1 498#03600801C8000000
(0000000037.183110) can0 45D#0000000000006F34
(0000000037.183342) can0 4F7#00240053270F527E
(0000000037.183582) can0 4FF#00000000CC74360C
(0000000037.183809) can1 49B#1858406100009C02
(0000000037.183987) can0 295#B43000D7FD2D82D2
(0000000037.184231) can0 2B5#0700B20064000000
(0000000037.184463) can0 315#0006256300FC6350
(0000000037.184705) can0 293#000E27FF700007FF
(0000000037.184776) can1 4A1#000000B40000C001
(0000000037.185262) can0 2A6#00C600D200C518C6
(0000000037.185500) can0 346#0028C900C804081C
(0000000037.185932) can0 3CF#8000000000000000
(0000000037.185958) can1 494#1800000441030841
(0000000037.186166) can0 3B9#6E38850070148000
(0000000037.187381) can1 496#0000000000004000
(0000000037.187752) can0 280#0000020600971E16
(0000000037.188377) can1 4D6#0000000000000000
(0000000037.188720) can0 215#E3FAC40A6BF893F8
(0000000037.188950) can0 255#89E46E006BFAC3FA
(0000000037.189745) can0 289#000038321A203000
(0000000037.191659) can0 20B#C30587FF08000000
(0000000037.191899) can0 24B#C8C83DF300000000
(0000000037.192137) can0 217#2104019081FF0020
(0000000037.192381) can0 294#7C6CC80180008000
(0000000037.192622) can0 29B#3FF5007020A30000
(0000000037.192868) can0 2CB#0000280007FF87FF
(0000000037.193116) can0 3EB#000062000000FFFE
(0000000037.193362) can0 4F8#00160802080007FD
(0000000037.194912) can0 293#000027FF000007FF
(0000000037.195161) can0 358#00100200000057FE
(0000000037.195407) can0 3D3#000000004C0006E0
(0000000037.195657) can0 3D8#0000000000000000
(0000000037.195893) can0 3F3#1C26088AFF7F0080
(0000000037.196763) can0 257#338AED02D80709E0
(0000000037.196810) can1 080#0308417800093100
(0000000037.197007) can0 397#1000000000376700
(0000000037.197244) can0 2C8#00C000C502C300BD
(0000000037.197792) can0 280#0000030600871E16
(0000000037.199914) can0 2A6#00C600D200C518C6
(0000000037.201940) can0 217#2104019081FF0030
(0000000037.202179) can0 337#0A403F9191000000
(0000000037.202421) can0 39A#800000000000320E
(0000000037.202657) can0 457#4800096006960082
(0000000037.202897) can0 477#0057015600000000
(0000000037.203149) can0 4FD#0000000000000000
(0000000037.204007) can0 215#E3FAC40A6BF793F7
(0000000037.204238) can0 255#89E46E006BFAC3FA
(0000000037.204466) can0 295#B43100D9FD2C82D3
(0000000037.204712) can0 293#000127FF080007FF
(0000000037.204950) can0 289#000038321A203000
(0000000037.205194) can0 2B5#0700B20064000000
(0000000037.205427) can0 315#0006256300FC6350
(0000000037.205665) can0 353#02684000000002A6
(0000000037.205995) can0 3CF#0000000000000000
(0000000037.206229) can0 3B9#6E38850070148000
(0000000037.206554) can1 4A3#000000000000106A
(0000000037.206673) can0 20B#C30887FD0C020000
(0000000037.206914) can0 24B#C8C83DF300000000
(0000000037.207158) can0 294#7C6CC80180008000
(0000000037.207404) can0 2CB#0000280007FF87FF
(0000000037.207650) can0 422#000000000000F160
(0000000037.207890) can0 280#0000040600F71E16
(0000000037.210516) can1 4AA#0000000000000000
(0000000037.211482) can1 4EE#000F001004D78018
(0000000037.211655) can0 29B#3FF6007020930000
(0000000037.211901) can0 4F8#00160802080107FD
(0000000037.212139) can0 217#2104019081FF0030
(0000000037.212369) can0 257#348AED03D8070AE0
(0000000037.212417) can1 198#2000F4C7F4A9A100
(0000000037.212605) can0 2C8#00C000C502C300BD
(0000000037.212850) can0 397#1000000000376700
(0000000037.213096) can0 400#1301000202000000
(0000000037.213334) can0 407#17020C02627F035D
(0000000037.213400) can1 1D0#0001000050001200
(0000000037.213584) can0 4FB#0000000000000008
(0000000037.213968) can0 355#FF78786C7897786E
(0000000037.214198) can0 4D5#02AB240C60F49228
(0000000037.214399) can1 208#0040000001000000
(0000000037.214852) can0 45D#0000000000006F34
(0000000037.215097) can0 293#000227FF100007FF
(0000000037.215327) can0 2A6#00C600D200C518C6
(0000000037.215358) can1 4F0#00001C640064641A
(0000000037.215565) can0 346#0028C900C804081C
(0000000037.215813) can0 358#00100200000057FE
(0000000037.216059) can0 3D3#000000004C0006E0
(0000000037.216310) can0 3D8#0000000000000000
(0000000037.216548) can0 3F3#1C26098BFF7F0080
(0000000037.217565) can1 010#007CF80A00F11E16
(0000000037.217760) can0 280#0000050600E71E16
(0000000037.218678) can0 215#E3FAC40A6BF793F7
(0000000037.218908) can0 255#89E46E006BFAC3FA
(0000000037.219050) can1 048#0000000090040101
(0000000037.219154) can0 495#8000000000000000
(0000000037.219767) can0 289#000038321A203000
(0000000037.219992) can1 49F#000097972104006A
(0000000037.221703) can0 20B#C30787FF10000000
(0000000037.221941) can0 217#2104019081FF0030
(0000000037.222181) can0 24B#C8C83DF300000000
(0000000037.222425) can0 294#7C6CC80180008000
(0000000037.222671) can0 2CB#0000280007FF87FF
(0000000037.222914) can0 39A#800000000000320E
(0000000037.223162) can0 3EB#000062000000FFFE
(0000000037.223402) can0 4BA#A000241230303000
(0000000037.223694) can1 0F0#0000020080030841
(0000000037.223964) can0 295#B43200DBFD2B82D4
(0000000037.224208) can0 2B5#0700B20064000000
(0000000037.224441) can0 315#0006256300FC6350
(0000000037.224668) can1 4B1#0000000000053500
(0000000037.224685) can0 293#000327FF180007FF
(0000000037.225635) can1 4D4#0058000000120C6F
(0000000037.225835) can0 3CF#0000000000000000
(0000000037.226069) can0 3B9#6E38850070148000
(0000000037.226813) can0 257#338AED04D8070BE0
(0000000037.227051) can0 337#0A403F9191000000
(0000000037.227288) can0 2C8#00C000C502C300BD
(0000000037.227532) can0 397#1000000000376700
(0000000037.227886) can0 280#0000060600D71E16
(0000000037.229932) can0 2A6#00C600D200C518C6
(0000000037.231655) can0 29B#3FF7007020830000
(0000000037.231891) can0 217#2104019081FF0040
(0000000037.232137) can0 4F8#00160802080007FD
(0000000037.232867) can1 0B8#ECE7F80002D400FF
(0000000037.233811) can1 128#09300202C543E46B
(0000000037.233983) can0 215#E3FAC40A6BF693F6
(0000000037.234213) can0 255#89E46E006BFAC3FA
(0000000037.234738) can1 160#01AC451E05769600
(0000000037.234749) can0 289#000038321A203000
(0000000037.234995) can0 293#000427FF200007FF
(0000000037.235236) can0 353#02694000000002A6
(0000000037.235484) can0 358#00100200000057FE
(0000000037.235705) can1 490#008005F36B000000
(0000000037.235730) can0 3D3#000000004C0006E0
(0000000037.235980) can0 3D8#0000000000000000
(0000000037.236218) can0 3F3#1C260A8CFF7F0080
(0000000037.236470) can0 478#0000000000000000
(0000000037.236695) can1 492#0000000000000000
(0000000037.236955) can0 422#000000000000F160
(0000000037.237261) can0 20B#C30887FF14000000
(0000000037.237501) can0 24B#C8C83DF300000000
(0000000037.237645) can1 080#0308417800093100
(0000000037.237743) can0 294#7C6BC80180008000
(0000000037.237983) can0 280#0000070600C71E16
(0000000037.238230) can0 2CB#0000280007FF87FF
(0000000037.238589) can1 4BE#00C63ED2C2C500C6
(0000000037.239572) can1 4C9#0000000000000805
(0000000037.240507) can1 4D2#0100140B0D0E0D08
(0000000037.241752) can0 39A#800000000000320E
(0000000037.241998) can0 217#2104019081FF0040
(0000000037.242228) can0 257#338AED05D8070CE0
(0000000037.242465) can0 2C8#00C000C502C300BD
(0000000037.242709) can0 397#1000000000376700
(0000000037.242945) can0 457#4800096006960082
(0000000037.242986) can1 400#1702000200000000
(0000000037.243185) can0 477#0057015600000000
(0000000037.243417) can0 4F7#00240053270F527E
(0000000037.243670) can0 4FD#0000000000000000
(0000000037.243906) can1 401#0333303532373602
(0000000037.243912) can0 4FF#00000000CC74360D
(0000000037.244314) can0 295#B43300DBFD2C82D3
(0000000037.244558) can0 2B5#0700B20064000000
(0000000037.244802) can0 293#000527FF280007FF
(0000000037.244905) can1 405#0000000000000000
(0000000037.245035) can0 315#0006256300FC6350
(0000000037.245265) can0 2A6#00C600D200C518C6
(0000000037.245503) can0 346#0028C900C804081C
(0000000037.245889) can1 4C7#0000000000001400
(0000000037.245983) can0 3CF#0000000000000000
(0000000037.246217) can0 3B9#6E38850070148000
(0000000037.246645) can0 45D#0000000000006F34
(0000000037.247774) can0 280#0000080600371E16
(0000000037.248662) can0 215#E3FAC40A6BF693F6
(0000000037.248892) can0 255#89E46E006BFAC3FA
(0000000037.249508) can1 4B3#F000000000910091
(0000000037.249746) can0 289#000038321A203000
(0000000037.251656) can0 20B#C30987FF18000000
(0000000037.251896) can0 24B#C8C83DF300000000
(0000000037.252132) can0 217#2104019081FF0040
(0000000037.252377) can0 294#7C6CC80180008000
(0000000037.252619) can0 29B#3FF8007020730000
(0000000037.252865) can0 2CB#0000280007FF87FF
(0000000037.253101) can0 337#3B503F9191000000
(0000000037.253349) can0 3EB#000062000000FFFE
(0000000037.253596) can0 4F8#0016080207FF07FD
(0000000037.254920) can0 293#000627FF300007FF
(0000000037.255168) can0 358#00100200000057FE
(0000000037.255414) can0 3D3#000000004C0006E0
(0000000037.255664) can0 3D8#0000000000000000
(0000000037.255900) can0 3F3#1C260B8DFF7F0080
(0000000037.256043) can1 4AE#C000000000003F3F
(0000000037.256731) can0 257#338AED06D8070DE0
(0000000037.256975) can0 397#1000000000376700
(0000000037.257211) can0 2C8#00C000C502C300BD
(0000000037.257775) can0 280#0000090600271E16
(0000000037.258683) can0 495#8000000000000000
(0000000037.259459) can1 4DA#0000000000000000
(0000000037.259918) can0 2A6#00C600D200C518C6
(0000000037.260443) can1 4DD#0101000000000000
(0000000037.261426) can1 4DF#FF0000020000FF00
(0000000037.261866) can0 217#2104019081FF0050
(0000000037.262108) can0 39A#800000000000320E
(0000000037.262457) can1 49D#0000000000000000
(0000000037.263409) can1 010#007CF80A00F11E16
(0000000037.264156) can0 215#E3FAC40A6BF793F7
(0000000037.264376) can1 498#03600801C8000000
(0000000037.264386) can0 255#89E46E006BFAC3FA
(0000000037.264630) can0 293#000727FF380007FF
(0000000037.264868) can0 289#000038321A203000
(0000000037.265099) can0 295#B43400E1FD2782D8
(0000000037.265311) can1 49B#1858406100009C02
(0000000037.265343) can0 2B5#0700B20064000000
(0000000037.265575) can0 315#0006256300FC6350
(0000000037.265815) can0 353#02694000000002A6
(0000000037.266039) can0 355#FF78786C7897786E
(0000000037.266274) can0 3B9#6E38850070148000
(0000000037.266293) can1 048#0000000090040101
(0000000037.266524) can0 3CF#0000000000000000
(0000000037.266762) can0 20B#C30A87FF1C000000
(0000000037.267002) can0 24B#C8C83DF300000000
(0000000037.267244) can0 294#7C6BC80180008000
(0000000037.267257) can1 494#5800000441030841
(0000000037.267490) can0 2CB#0000280007FF87FF
(0000000037.267727) can0 3F5#06009E003D7D3700
(0000000037.267967) can0 280#00000A0600171E16
(0000000037.268213) can0 422#000000000000F160
(0000000037.268244) can1 496#0000000000004000
(0000000037.268459) can0 4B5#0500000000070000
(0000000037.268691) can0 4D5#02AF240C60F49228
(0000000037.269211) can1 4A1#000000B40000C001
(0000000037.270129) can1 4A8#224178787878EA00
(0000000037.271112) can1 4C2#0000000000000834
(0000000037.271661) can0 29B#3FF9007020630000
(0000000037.271908) can0 4F8#0016080207FF07FD
(0000000037.272103) can1 4C4#FFFFFFFFFFFFFFFF
(0000000037.272142) can0 217#2104019081FF0050
(0000000037.272376) can0 257#338AED07D8070EE0
(0000000037.272612) can0 2C8#00C000C502C300BD
(0000000037.272856) can0 397#1000000000376700
(0000000037.273098) can1 4CB#0000000500000002
(0000000037.274093) can1 4CD#00000000FFFFFFFF
(0000000037.274905) can0 2A6#00C600D200C518C6
(0000000037.275096) can1 4CF#00000000FFFFFFFF
(0000000037.275149) can0 293#000827FF400007FF
(0000000037.275387) can0 346#0028C900C804081C
(0000000037.275635) can0 358#00100200000057FE
(0000000037.275882) can0 3D3#000000004C0006E0
(0000000037.276038) can1 4E1#00AA04017D00DA18
(0000000037.276132) can0 3D8#0000000000000000
(0000000037.276368) can0 3F3#1C260C8EFF7F0080
(0000000037.276806) can0 337#0A403F9191000000
(0000000037.276989) can1 080#0308417800093100
(0000000037.277782) can0 280#00000B0600071E16
(0000000037.277923) can1 198#2000F4C7F4A9A100
(0000000037.278474) can0 45D#0000000000006F34
(0000000037.278704) can0 215#E3FAC40A6BF493F4
(0000000037.278907) can1 1D0#0001000050001200
(0000000037.278934) can0 255#89E46E006BFAC3FA
(0000000037.279751) can0 289#000038321A203000
(0000000037.279890) can1 208#0040000001000030
(0000000037.280888) can1 4A6#0800000000000000
(0000000037.281663) can0 20B#C30B87FF20000000
(0000000037.281815) can1 4E3#9709F0022505C5ED
(0000000037.281903) can0 24B#C8C83DF300000000
(0000000037.282137) can0 217#2104019081FF0050
(0000000037.282379) can0 294#7C6BC80180008000
(0000000037.282626) can0 2CB#0000280007FF87FF
(0000000037.282796) can1 503#0402000003000000
(0000000037.282868) can0 39A#800000000000320E
(0000000037.283116) can0 3EB#000062000000FFFE
(0000000037.283352) can0 457#4800096006960082
(0000000037.283592) can0 477#0057015600000000
(0000000037.283843) can0 4FB#0000000000000008
(0000000037.284095) can0 4FD#0000000000000000
(0000000037.284323) can0 295#B43500E6FD2382DC
(0000000037.284567) can0 293#000927FF480007FF
(0000000037.284811) can0 2B5#0700B20064000000
(0000000037.285043) can0 315#0006256300FC6350
(0000000037.285288) can0 511#0102200101000000
(0000000037.285918) can0 3CF#8000000000000000
(0000000037.286152) can0 3B9#6E38850070148000
(0000000037.286806) can0 257#338AED08D8070FE0
(0000000037.287050) can0 397#1000000000376700
(0000000037.287282) can1 0F0#0000020080030841
(0000000037.287287) can0 2C8#00C000C502C300BD
(0000000037.287835) can0 280#00000C0600771E16
(0000000037.289923) can0 2A6#00C600D200C518C6
(0000000037.291654) can0 29B#3FFA007020530000
(0000000037.291892) can0 217#2104019081FF0060
(0000000037.292138) can0 4F8#0016080207FD07FD
(0000000037.293908) can0 215#E3FAC40A6BF393F3
(0000000037.294138) can0 255#89E46E006BFAC3FA
(0000000037.294750) can0 289#000038321A203000
(0000000037.294992) can0 293#000A27FF500007FF
(0000000037.295233) can0 353#02694000000002A7
(0000000037.295481) can0 358#00100200000057FE
(0000000037.295727) can0 3D3#000000004C0006E0
(0000000037.295977) can0 3D8#0000000000000000
(0000000037.296215) can0 3F3#1C260D8FFF7F0080
(0000000037.296467) can0 478#0000000000000000
(0000000037.296962) can0 422#000000000000F160
(0000000037.297238) can0 20B#C30D87FE24010000
(0000000037.297478) can0 24B#C8C83DF300000000
(0000000037.297720) can0 294#7C6BC80180008000
(0000000037.297746) can1 0B8#ECE7F80002DC00FF
(0000000037.297961) can0 280#00000D0600671E16
(0000000037.298207) can0 2CB#0000280007FF87FF
(0000000037.298689) can1 128#09300202C543E46B
(0000000037.299185) can0 495#8000000000000000
(0000000037.299617) can1 160#01AC451E05769600
(0000000037.300584) can1 490#008005F36B000000
(0000000037.301671) can1 4A3#000000000000106A
(0000000037.301991) can0 217#2104019081FF0060
(0000000037.302219) can0 257#338AED09D80710E0
(0000000037.302456) can0 2C8#00C000C502C300BD
(0000000037.302694) can0 337#0A403F9191000000
(0000000037.302938) can0 397#1000000000376700
(0000000037.303180) can0 39A#800000000000320E
(0000000037.303424) can0 437#000000000022FF80
(0000000037.303656) can0 4F7#00240053270F527E
(0000000037.303899) can0 4FF#00000000CC74360D
(0000000037.304129) can0 295#B43600DFFD2B82D4
(0000000037.304373) can0 2B5#0700B20064000000
(0000000037.304615) can0 293#000B27FF580007FF
(0000000037.304847) can0 315#0006256300FC6350
(0000000037.305376) can0 2A6#00C600D200C518C6
(0000000037.305614) can0 346#0028C900C804081C
(0000000037.305950) can0 3CF#0000000000000000
(0000000037.306185) can0 3B9#6E38850070148000
(0000000037.307615) can1 010#007CF80A00F11E16
(0000000037.307795) can0 280#00000E0600571E16
(0000000037.308667) can0 215#E3FAC4096BF393F3
(0000000037.308897) can0 255#89E46E006BFAC3FA
(0000000037.309028) can1 048#0000000090040101
(0000000037.309745) can0 289#000038321A203000
(0000000037.310018) can1 492#0000000000000000
(0000000037.310739) can0 45D#0000000000006F34
(0000000037.310959) can1 49F#000097972104006A
(0000000037.311675) can0 20B#C30D87FF28000000
(0000000037.311915) can0 24B#C8C83DF300000000
(0000000037.311949) can1 4E5#0000000000000000
(0000000037.312153) can0 217#2104019081FF0060
(0000000037.312398) can0 294#7C6CC80180008000
(0000000037.312640) can0 29B#3FFB007020430000
(0000000037.312886) can0 2CB#0000280007FF87FF
(0000000037.313134) can0 3EB#000062000000FFFE
(0000000037.313380) can0 4F8#0016080207FF07FD
(0000000037.313936) can0 355#FF78786C7897786E
(0000000037.314168) can0 4D5#02AF240C60F49228
(0000000037.314917) can0 293#000C27FF600007FF
(0000000037.315165) can0 358#00100200000057FE
(0000000037.315411) can0 3D3#000000004C0006E0
(0000000037.315661) can0 3D8#0000000000000000
(0000000037.315897) can0 3F3#1C260E90FF7F0080
(0000000037.316785) can1 080#0308417800093100
(0000000037.316907) can0 257#338AED0AD80711E0
(0000000037.317144) can0 2C8#00C000C502C300BD
(0000000037.317388) can0 397#1000000000376700
(0000000037.317854) can0 280#00000F0600471E16
(0000000037.318885) can1 4AA#0000000000000000
(0000000037.319924) can0 2A6#00C600D200C518C6
(0000000037.321978) can0 217#2104019081FF0070
(0000000037.322220) can0 39A#800000000000320E
(0000000037.322457) can0 457#4800096006960082
(0000000037.322697) can0 477#0057015600000000
(0000000037.322949) can0 4FD#0000000000000000
(0000000037.323975) can0 215#E40CC4096BF693F6
(0000000037.324205) can0 255#89E46E076C0CC40C
(0000000037.324433) can0 295#B43700DDFD2E82D1
(0000000037.324676) can0 293#000D27FF680007FF
(0000000037.324914) can0 289#000038321A203000
(0000000037.325154) can0 2B5#0F07B20064230000
(0000000037.325390) can0 315#0006256307FC6350
(0000000037.325628) can0 353#026A4000000002A7
(0000000037.325986) can0 3CF#0000000000000000
(0000000037.326221) can0 3B9#6E38850070148000
(0000000037.326671) can0 20B#C30E87FF2C000000
(0000000037.326911) can0 24B#C8C83DF300000000
(0000000037.327155) can0 294#7C6CC80180008000
(0000000037.327402) can0 2CB#0000280007FF87FF
(0000000037.327640) can0 337#0A403F9191000000
(0000000037.327880) can0 280#0000000600B71E16
(0000000037.328126) can0 422#000000000000F160
(0000000037.331656) can0 29B#3FFC007020330000
(0000000037.331903) can0 4F8#00160802080007FD
(0000000037.332139) can0 217#2104019081FF0070
(0000000037.332367) can0 257#338AED0BD80712E0
(0000000037.332603) can0 2C8#00C000C502C300BD
(0000000037.332847) can0 397#1000000000376700
(0000000037.334910) can0 2A6#00C600D200C518C6
(0000000037.335152) can0 293#000E27FF700007FF
(0000000037.335391) can0 346#0028C900C804081C
(0000000037.335639) can0 358#00100200000057FE
(0000000037.335885) can0 3D3#000000004C0006E0
(0000000037.336135) can0 3D8#0000000000000000
(0000000037.336373) can0 3F3#1C260082FF7F0080
(0000000037.337801) can0 280#0000010600A71E16
(0000000037.338659) can0 215#E41EC4096BF793F7
(0000000037.338894) can0 255#89E46E106C1EC41E
(0000000037.339140) can0 495#8000000000000000
(0000000037.339766) can0 289#000038321A203000
(0000000037.341700) can0 20B#C30F87FF30000000
(0000000037.341940) can0 24B#C8C83DF300000000
(0000000037.342183) can0 294#7C6BC80180008000
(0000000037.342429) can0 2CB#0000280007FF87FF
(0000000037.342665) can0 217#2104019081FF0070
(0000000037.342907) can0 39A#800000000000320E
(0000000037.342988) can1 198#2000F4C7F4A9A100
(0000000037.343155) can0 3EB#000062000000FFFE
(0000000037.343397) can0 45D#0000000000006F34
(0000000037.343932) can0 295#B43800DBFD3182CE
(0000000037.343972) can1 1D0#0001000050001200
(0000000037.344170) can0 2B5#261AB20064810000
(0000000037.344402) can0 315#000625631AFC6350
(0000000037.344650) can0 293#000027FF000007FF
(0000000037.344971) can1 208#0040000001000000
(0000000037.345836) can0 3CF#0000000000000000
(0000000037.345937) can1 494#1800000441030841
(0000000037.346070) can0 3B9#6E38850070148000
(0000000037.346925) can1 496#0000000000004000
(0000000037.346985) can0 257#338AED0CD80713E0
(0000000037.347221) can0 2C8#00C000C502C300BD
(0000000037.347465) can0 397#1000000000376700
(0000000037.347865) can0 280#0000020600971E16
(0000000037.347892) can1 498#03600801C8000000
(0000000037.348827) can1 49B#1858406100009C02
(0000000037.349794) can1 4A1#000000B40000C001
(0000000037.349928) can0 2A6#00C600D200C518C6
(0000000037.350791) can1 4D6#0000000000000000
(0000000037.351650) can0 29B#3FFD007020230000
(0000000037.351896) can0 4F8#0016080207FE07FD
(0000000037.351998) can1 0F0#0000020000030841
(0000000037.352132) can0 217#2104019081FF0070
(0000000037.352371) can0 337#0A403F9191000000
(0000000037.352621) can0 4FB#0000000000000008
(0000000037.352949) can1 010#007CF80A00F11E16
(0000000037.353941) can1 49D#0000000000000000
(0000000037.354306) can0 215#E443C4096C099409
(0000000037.354529) can0 255#89E46E1B6C43C443
(0000000037.354767) can0 289#000038321A203000
(0000000037.354922) can1 048#0000000090040101
(0000000037.355013) can0 293#000127FF080007FF
(0000000037.355251) can0 353#02684000000002A7
(0000000037.355500) can0 358#00100200000057FE
(0000000037.355746) can0 3D3#000000004C0006E0
(0000000037.355842) can1 4A8#224178787878EA00
(0000000037.355996) can0 3D8#0000000000000000
(0000000037.356236) can0 3F3#1C260183FF7F0080
(0000000037.356488) can0 478#0000000000000000
(0000000037.356816) can1 4B1#0000000000053500
(0000000037.356964) can0 422#000000000000F160
(0000000037.357297) can0 20B#C31087FF34000000
(0000000037.357537) can0 24B#C8C83DF300000000
(0000000037.357767) can1 080#0308417800093100
(0000000037.357779) can0 294#7C6BC80180008000
(0000000037.358019) can0 280#0000030600871E16
(0000000037.358265) can0 2CB#0000280007FF87FF
(0000000037.358759) can1 4C4#FFFFFFFFFFFFFFFF
(0000000037.359742) can1 4C9#0000000000000805
(0000000037.361784) can0 39A#800000000000320E
(0000000037.361958) can1 4C2#0000000000000834
(0000000037.362096) can0 217#2104019081FF0000
(0000000037.362324) can0 257#338AED0DD80714E0
(0000000037.362560) can0 2C8#00C000C502C300BD
(0000000037.362804) can0 397#1000000000376700
(0000000037.363041) can0 457#4800096006960082
(0000000037.363077) can1 0B8#ECE7F80002CE00FF
(0000000037.363281) can0 477#0057015600000000
(0000000037.363513) can0 4F7#00240053270F527E
(0000000037.363765) can0 4FD#0000000000000000
(0000000037.364007) can0 4FF#00000000CC74360E
(0000000037.364021) can1 128#09300202C543E46B
(0000000037.364236) can0 295#B43900D8FD3582CA
(0000000037.364472) can0 2B5#2A2EB20064E60000
(0000000037.364716) can0 293#000227FF100007FF
(0000000037.364948) can1 160#01AC451E05769600
(0000000037.364951) can0 315#000625632EFC6350
(0000000037.365174) can0 355#FF78786C7897786E
(0000000037.365405) can0 2A6#00C600D200C518C6
(0000000037.365643) can0 346#0028C900C804081C
(0000000037.365889) can0 4B5#0500000000070000
(0000000037.365915) can1 490#008005F36B000000
(0000000037.366123) can0 3B9#6E38850070148000
(0000000037.366373) can0 3CF#0000000000000000
(0000000037.366606) can0 4D5#02AF240C60F49228
(0000000037.366859) can1 4BE#00C63ED2C2C500C6
(0000000037.367812) can0 280#0000040600F71E16
(0000000037.367842) can1 4C7#0000000000001400
(0000000037.368841) can1 4E8#8000000000000000
(0000000037.368866) can0 215#E45BC4096C099409
(0000000037.369090) can0 255#89E46E246C5BC45B
(0000000037.369746) can0 289#000038321A203000
(0000000037.371658) can0 20B#C31187FF38000000
(0000000037.371899) can0 24B#C8C83DF300000000
(0000000037.372139) can0 217#2104019081FF0000
(0000000037.372381) can0 294#7C6BC80180008000
(0000000037.372623) can0 29B#3FFE007020130000
(0000000037.372869) can0 2CB#0000280007FF87FF
(0000000037.373118) can0 3EB#000062000000FFFE
(0000000037.373260) can1 4B3#F000000000910091
(0000000037.373364) can0 4F8#0016080207FF07FD
(0000000037.374437) can0 45D#0000000000006F34
(0000000037.374954) can0 293#000327FF180007FF
(0000000037.375202) can0 358#00100200000057FE
(0000000037.375448) can0 3D3#000000004C0006E0
(0000000037.375698) can0 3D8#0000000000000000
(0000000037.375936) can0 3F3#1C260284FF7F0080
(0000000037.376945) can0 257#338AED0ED80715E0
(0000000037.377181) can0 2C8#00C000C502C300BD
(0000000037.377417) can0 337#3B503F9191000000
(0000000037.377661) can0 397#1000000000376700
(0000000037.377899) can0 280#0000050600E71E16
(0000000037.378651) can0 495#8000000000000000
(0000000037.379269) can1 4A6#0800000000000000
(0000000037.379942) can0 2A6#00C600D200C518C6
(0000000037.381037) can1 4AE#C000000000003F3F
(0000000037.381770) can0 39A#800000000000320E
(0000000037.382010) can0 217#2104019081FF0010
(0000000037.383900) can0 215#E492C40B6C0B9409
(0000000037.384122) can0 255#89E46E356C92C492
(0000000037.384350) can0 295#B43A00D9FD3582CA
(0000000037.384596) can0 293#000427FF200007FF
(0000000037.384834) can0 289#000038321A203000
(0000000037.385073) can0 2B5#3443B20065500000
(0000000037.385303) can0 315#0006256343FC6350
(0000000037.385543) can0 353#02694000000002A7
(0000000037.385891) can0 3CF#8000000000000000
(0000000037.386126) can0 3B9#6E38850070148000
(0000000037.386674) can0 20B#C30387FF00000000
(0000000037.386914) can0 24B#C8C83DF300000000
(0000000037.387156) can0 294#7C6BC80180008000
(0000000037.387292) can1 4CB#0000000500000002
(0000000037.387402) can0 2CB#0000280007FF87FF
(0000000037.387649) can0 422#000000000000F160
(0000000037.387889) can0 280#0000060600D71E16
(0000000037.388288) can1 4CD#00000000FFFFFFFF
(0000000037.389293) can1 4CF#00000000FFFFFFFF
(0000000037.390282) can1 492#0000000000000000
(0000000037.391246) can1 4F3#14090B101F000000
(0000000037.391661) can0 29B#3FFF007020030000
(0000000037.391907) can0 4F8#00160802080007FE
(0000000037.392147) can0 217#2104019081FF0010
(0000000037.392237) can1 504#0502000304000000
(0000000037.392383) can0 257#338AED00D80707E0
(0000000037.392620) can0 2C8#00C000C502C300BD
(0000000037.392864) can0 397#1000000000376700
(0000000037.393108) can0 501#1102200101000000
(0000000037.394914) can0 2A6#00C600D200C518C6
(0000000037.395158) can0 293#000527FF280007FF
(0000000037.395397) can0 346#0028C900C804081C
(0000000037.395645) can0 358#00100200000057FE
(0000000037.395891) can0 3D3#000000004C0006E0
(0000000037.396141) can0 3D8#0000000000000000
(0000000037.396379) can0 3F3#1C260385FF7F0080
(0000000037.396581) can1 4A3#000000000000106A
(0000000037.397532) can1 080#0308417800093100
(0000000037.397823) can0 280#0000070600C71E16
(0000000037.398462) can0 215#E4AEC4106C10940C
(0000000037.398483) can1 010#007CF80A00F11E16
(0000000037.398684) can0 255#89E46E3C6CAEC4AE
(0000000037.399742) can0 289#000038321A203000
(0000000037.401666) can0 20B#C30487FF04000000
(0000000037.401906) can0 24B#C8C83DF300000000
(0000000037.402146) can0 217#2104019081FF0010
(0000000037.402389) can0 294#7C6BC80180008000
(0000000037.402635) can0 2CB#0000280007FF87FF
(0000000037.402873) can0 337#0A403F9191000000
(0000000037.403115) can0 39A#800000000000320E
(0000000037.403363) can0 3EB#000062000000FFFE
(0000000037.403599) can0 457#4800096006960082
(0000000037.403840) can0 477#0057015600000000
(0000000037.404072) can0 295#B43B00DFFD3082CF
(0000000037.404306) can0 2B5#3959B20065BD0000
(0000000037.404548) can0 293#000627FF300007FF
(0000000037.404783) can0 315#0006256359FC6350
(0000000037.405035) can0 4FD#0000000000000000
(0000000037.405903) can0 3CF#0000000000000000
(0000000037.406137) can0 3B9#6E38850070148000
(0000000037.406255) can1 048#0000000090040101
(0000000037.406551) can0 45D#0000000000006F34
(0000000037.406796) can0 47D#0000000000030841
(0000000037.407026) can0 257#348AED01D80708E0
(0000000037.407197) can1 49F#000097972104006A
(0000000037.407262) can0 2C8#00C000C502C300BD
(0000000037.407506) can0 397#1000000000376700
(0000000037.407884) can0 280#0000080600371E16
(0000000037.408397) can1 198#2000F4C7F4A9A100
(0000000037.409380) can1 1D0#0001000050001200
(0000000037.409935) can0 2A6#00C600D200C518C6
(0000000037.410364) can1 208#0040000001000030
(0000000037.411651) can0 29B#3FF1007020E30000
(0000000037.411897) can0 4F8#00160802080007FD
(0000000037.412135) can0 217#2104019081FF0020
(0000000037.413875) can0 215#E4E3C4216C219418
(0000000037.414099) can0 255#89E46E4F6CE3C4E3
(0000000037.414324) can0 355#FF78786C7897786E
(0000000037.414552) can0 4D5#02AF290C60F49228
(0000000037.414790) can0 289#000038321A203000
(0000000037.415034) can0 293#000727FF380007FF
(0000000037.415201) can1 0F0#0000020080030841
(0000000037.415275) can0 353#02694000000002A6
(0000000037.415523) can0 358#00100200000057FE
(0000000037.415769) can0 3D3#000000004C0006E0
(0000000037.416019) can0 3D8#0000000000000000
(0000000037.416168) can1 4D4#0058000000120C6F
(0000000037.416257) can0 3F3#1C260486FF7F0080
(0000000037.416509) can0 478#0000000000000000
(0000000037.416972) can0 422#000000000000F160
(0000000037.417248) can0 20B#C30587FF08000000
(0000000037.417488) can0 24B#C8C83DF300000000
(0000000037.417732) can0 294#7C6CC80180008000
(0000000037.417973) can0 280#0000090600271E16
(0000000037.418219) can0 2CB#0000280007FF87FF
(0000000037.418635) can0 495#8000000000000000
(0000000037.421709) can0 4FB#0000000000000008
(0000000037.421951) can0 39A#800000000000320E
(0000000037.422189) can0 217#2104019081FF0020
(0000000037.422419) can0 257#338AED02D80709E0
(0000000037.422656) can0 2C8#00C000C502C300BD
(0000000037.422900) can0 397#1000000000376700
(0000000037.422936) can1 498#03600801C8000000
(0000000037.423132) can0 4F7#00240053270F527E
(0000000037.423374) can0 4FF#00000000CC74360F
(0000000037.423871) can1 49B#1858406100009C02
(0000000037.424072) can0 295#B43C00EBFD2582DA
(0000000037.424310) can0 2B5#3F6EB20066240000
(0000000037.424547) can0 315#000625636EFC6350
(0000000037.424791) can0 293#000827FF400007FF
(0000000037.424838) can1 4A1#000000B40000C001
(0000000037.425121) can0 2A6#00C600D200C518C6
(0000000037.425359) can0 346#0028C900C804081C
(0000000037.425804) can1 494#1800000441030841
(0000000037.425953) can0 3CF#0000000000000000
(0000000037.426188) can0 3B9#6E38850070148000
(0000000037.426793) can1 496#0000000000004000
(0000000037.426958) can0 337#0A403F9191000000
(0000000037.427832) can0 280#00000A0600171E16
(0000000037.427888) can1 0B8#ECE7F80002DA00FF
(0000000037.428588) can0 215#E4FDC42D6C2D9422
(0000000037.428814) can0 255#89E46E5C6CFDC4FD
(0000000037.428831) can1 128#09300202C543E46B
(0000000037.429720) can0 289#000038321A203000
(0000000037.429759) can1 160#01AC451E05769600
(0000000037.430726) can1 490#008005F36B000000
(0000000037.431661) can1 4D2#0100140B0D0E0D08
(0000000037.431664) can0 20B#C30687FF0C000000
(0000000037.431903) can0 24B#C8C83DF300000000
(0000000037.432141) can0 217#2104019081FF0020
(0000000037.432385) can0 294#7C6CC80180008000
(0000000037.432629) can0 29B#3FF2007020D30000
(0000000037.432876) can0 2CB#0000280007FF87FF
(0000000037.433124) can0 3EB#000062000000FFFE
(0000000037.433370) can0 4F8#00160802080107FD
(0000000037.434936) can0 293#000927FF480007FF
(0000000037.435184) can0 358#00100200000057FE
(0000000037.435430) can0 3D3#000000004C0006E0
(0000000037.435681) can0 3D8#0000000000000000
(0000000037.435919) can0 3F3#1C260587FF7F0080
(0000000037.436730) can1 080#0308417800093100
(0000000037.436801) can0 257#348AED03D8070AE0
(0000000037.437045) can0 397#1000000000376700
(0000000037.437281) can0 2C8#00C000C502C300BD
(0000000037.437719) can1 4AA#0000000000000000
(0000000037.437838) can0 280#00000B0600071E16
(0000000037.438497) can0 45D#0000000000006F34
(0000000037.438661) can1 4E1#00AA04017D00DA18
(0000000037.439651) can1 4EA#000000FBFB000000
(0000000037.439934) can0 2A6#00C600D200C518C6
(0000000037.442010) can0 217#2104019081FF0020
(0000000037.442252) can0 39A#800000000000320E
(0000000037.442488) can0 457#4800096006960082
(0000000037.442729) can0 477#0057015600000000
(0000000037.442963) can1 010#007CF80A00F11E16
(0000000037.442981) can0 4FD#0000000000000000
(0000000037.443954) can1 49D#0000000000000000
(0000000037.444317) can0 215#E533C4556C559443
(0000000037.444541) can0 255#89E46E6E6D33C533
(0000000037.444779) can0 289#000038321A203000
(0000000037.444873) can1 4A8#224178787878EA00
(0000000037.445021) can0 293#000A27FF500007FF
(0000000037.445251) can0 295#B43D00F5FD1C82E3
(0000000037.445489) can0 2B5#4681B20066830000
(0000000037.445722) can0 315#0006256381FC6350
(0000000037.445864) can1 4C4#FFFFFFFFFFFFFFFF
(0000000037.445962) can0 353#02694000000002A6
(0000000037.446196) can0 3B9#6E38850070148000
(0000000037.446446) can0 3CF#0000000000000000
(0000000037.446692) can0 20B#C30787FF10000000
(0000000037.446933) can0 24B#C8C83DF300000000
(0000000037.447175) can0 294#7C6BC80180008000
(0000000037.447421) can0 2CB#0000280007FF87FF
(0000000037.447667) can0 422#000000000000F160
(0000000037.447907) can0 280#00000C0600771E16
(0000000037.449722) can1 048#0000000090040101
(0000000037.451662) can0 29B#3FF3007020C30000
(0000000037.451908) can0 4F8#0016080207FF07FD
(0000000037.452146) can0 217#2104019081FF0030
(0000000037.452378) can0 257#338AED04D8070BE0
(0000000037.452614) can0 2C8#00C000C502C300BD
(0000000037.452852) can0 337#0A403F9191000000
(0000000037.452986) can1 4EC#0007000000000000
(0000000037.453096) can0 397#1000000000376700
(0000000037.453341) can0 437#000000000022FF80
(0000000037.454933) can0 2A6#00C600D200C518C6
(0000000037.455175) can0 293#000B27FF580007FF
(0000000037.455414) can0 346#0028C900C804081C
(0000000037.455662) can0 358#00100200000057FE
(0000000037.455908) can0 3D3#000000004C0006E0
(0000000037.456158) can0 3D8#0000000000000000
(0000000037.456422) can0 3F3#1C260688FF7F0080
(0000000037.456939) can1 4C2#0000000000000834
(0000000037.457842) can0 280#00000D0600671E16
(0000000037.458581) can0 215#E555C46C6C6C9456
(0000000037.458803) can0 255#89E46E736D55C555
(0000000037.459049) can0 495#8000000000000000
(0000000037.459751) can0 289#000038321A203000
(0000000037.461693) can0 20B#C30887FF14000000
(0000000037.461934) can0 24B#C8C83DF300000000
(0000000037.462172) can0 217#2104019081FF0030
(0000000037.462414) can0 294#7C6BC80180008000
(0000000037.462660) can0 2CB#0000280007FF87FF
(0000000037.462902) can0 39A#800000000000320E
(0000000037.463151) can0 3EB#000062000000FFFE
(0000000037.463403) can0 400#1400000000000000
(0000000037.463635) can0 405#1241333035323736
(0000000037.463873) can0 407#18C00FDB120A000A
(0000000037.464108) can0 295#B43E00FCFD1682E9
(0000000037.464340) can0 2B5#5291B20066D70000
(0000000037.464582) can0 293#000C27FF600007FF
(0000000037.464814) can0 315#0006256391FC6350
(0000000037.465038) can0 355#FF78786C7897786E
(0000000037.465276) can0 3F5#0600A2003D7F3700
(0000000037.465522) can0 4B5#0500000000070000
(0000000037.465763) can0 4BA#A000241230303000
(0000000037.466013) can0 3CF#0000000000000000
(0000000037.466141) can1 492#0000000000000000
(0000000037.466247) can0 3B9#6E38850070148000
(0000000037.466479) can0 4D5#02AF4C0C60F49228
(0000000037.467136) can0 2C8#00C000C502C300BD
(0000000037.467600) can0 257#348AED05D8070CE0
(0000000037.467844) can0 397#1000000000376700
(0000000037.468086) can0 280#00000E0600571E16
(0000000037.469947) can0 2A6#00C600D200C518C6
(0000000037.470558) can0 45D#0000000000006F34
(0000000037.471675) can0 29B#3FF4007020B30000
(0000000037.471921) can0 4F8#0016080207FF07FD
(0000000037.472281) can0 217#2104019081FF0040
(0000000037.473841) can0 215#E5A0C49D6C9D9485
(0000000037.473846) can1 198#2000F4C7F4A9A100
(0000000037.474067) can0 255#89E46E846DA0C5A0
(0000000037.474747) can0 289#000038321A203000
(0000000037.474830) can1 1D0#0001000050001200
(0000000037.475038) can0 293#000D27FF680007FF
(0000000037.475278) can0 353#026A4000000002A8
(0000000037.475526) can0 358#00100200000057FE
(0000000037.475772) can0 3D3#000000004C0006E0
(0000000037.475829) can1 208#0040000001000000
(0000000037.476022) can0 3D8#0000000000000000
(0000000037.476260) can0 3F3#1C260789FF7F0080
(0000000037.476513) can0 478#0000000000000000
(0000000037.476780) can1 080#0308417800097100
(0000000037.476975) can0 422#000000000000F160
(0000000037.477213) can0 337#0A403F9191000000
(0000000037.477449) can0 20B#C30B87FD18020000
(0000000037.477689) can0 24B#C8C83DF300000000
(0000000037.477930) can0 280#00000F0600471E16
(0000000037.478174) can0 294#7C6CC80180008000
(0000000037.478420) can0 2CB#0000280007FF87FF
(0000000037.479130) can1 0F0#0000020080030841
(0000000037.480129) can1 4A6#0800000000000000
(0000000037.481104) can1 4B1#0000000000053500
(0000000037.481790) can0 39A#800000000000320E
(0000000037.482063) can0 217#2104019081FF0040
(0000000037.482088) can1 4C9#0000000000000805
(0000000037.482295) can0 257#348AED06D8070DE0
(0000000037.482531) can0 2C8#00C000C502C300BD
(0000000037.482775) can0 397#1000000000376700
(0000000037.483012) can0 457#4800096006960082
(0000000037.483095) can1 4DA#0000000000000000
(0000000037.483252) can0 477#0057015600000000
(0000000037.483484) can0 4F7#00240053270F527E
(0000000037.483736) can0 4FD#0000000000000000
(0000000037.483978) can0 295#B43000FDFD0782F8
(0000000037.484078) can1 4DD#0101000000000000
(0000000037.484210) can0 2B5#49A1B20067230000
(0000000037.484441) can0 315#00062563A1FC6350
(0000000037.484683) can0 293#000E27FF700007FF
(0000000037.484925) can0 4FF#00000000CC74360F
(0000000037.485061) can1 4DF#FF0000020000FF00
(0000000037.485295) can0 2A6#00C600D200C518C6
(0000000037.485533) can0 346#0028C900C804081C
(0000000037.485977) can0 3CF#8000000000000000
(0000000037.486212) can0 3B9#6E38850070148000
(0000000037.487661) can1 010#007CF80A00F11E16
(0000000037.487854) can0 280#0000000600B71E16
(0000000037.488836) can0 215#E5A7C4B76CB7949E
(0000000037.489066) can0 255#89E46E8E6DA7C5A7
(0000000037.489742) can0 289#000038321A203000
(0000000037.490300) can1 4C7#0000000000001400
(0000000037.491661) can0 20B#C30A87FF1C000000
(0000000037.491683) can1 4A3#000000000000106A
(0000000037.491901) can0 24B#C8C83DF300000000
(0000000037.492137) can0 217#2104019081FF0040
(0000000037.492381) can0 294#7C6CC80180008000
(0000000037.492621) can0 29B#3FF5007020A30000
(0000000037.492867) can0 2CB#0000280007FF87FF
(0000000037.492979) can1 0B8#ECE7F80002F800FF
(0000000037.493116) can0 3EB#000062000000FFFE
(0000000037.493362) can0 4F8#00160802080107FD
(0000000037.493612) can0 4FB#0000000000000008
(0000000037.493922) can1 128#09300202C543E46B
(0000000037.494849) can1 160#01AC451E05769600
(0000000037.494944) can0 293#000027FF000007FF
(0000000037.495192) can0 358#00100200000057FE
(0000000037.495438) can0 3D3#000000004C0006E0
(0000000037.495689) can0 3D8#0000000000000000
(0000000037.495848) can1 400#1800000000030000
(0000000037.495925) can0 3F3#1C26088AFF7F0080
(0000000037.496830) can1 048#0000000090040101
(0000000037.496873) can0 257#338AED07D8070EE0
(0000000037.497117) can0 397#1000000000376700
(0000000037.497353) can0 2C8#00C000C502C300BD
(0000000037.497773) can1 401#0401730377016300
(0000000037.497902) can0 280#0000010600A71E16
(0000000037.498600) can0 495#8000000000000000
(0000000037.498771) can1 405#0000000000000000
(0000000037.499737) can1 490#008005F36B000000
(0000000037.499938) can0 2A6#00C600D200C518C6
(0000000037.500678) can1 49F#000097972104006A
(0000000037.501634) can1 4B3#F000000000910091
(0000000037.501906) can0 217#2104019081FF0050
(0000000037.502144) can0 337#0A403F9191000000
(0000000037.502387) can0 39A#800000000000320E
(0000000037.502577) can1 4BE#00C63ED2C2C500C6
(0000000037.502629) can0 45D#0000000000006F34
(0000000037.502873) can0 511#0102200101000000
(0000000037.503543) can1 498#03600801C8000000
(0000000037.503849) can0 215#E5A9C4ED6CEB94D1
(0000000037.504071) can0 255#89E46EA46DA9C5A9
(0000000037.504301) can0 295#B4310021FCE5831A
(0000000037.504478) can1 49B#1858406100009C02
(0000000037.504536) can0 2B5#4AAFB200676D0000
(0000000037.504774) can0 289#000038321A203000
(0000000037.505020) can0 293#000127FF080007FF
(0000000037.505254) can0 315#00062563AFFC6350
(0000000037.505464) can1 496#0000000000004000
(0000000037.505492) can0 353#02694000000002AC
(0000000037.505904) can0 3CF#0000000000000000
(0000000037.506139) can0 3B9#6E38850070148000
(0000000037.506429) can1 494#1800000441030841
(0000000037.506617) can0 422#000000000000F160
(0000000037.506857) can0 20B#C30B87FF20000000
(0000000037.507097) can0 24B#C8C83DF300000000
(0000000037.507342) can0 294#7C6CC80180008000
(0000000037.507394) can1 4A1#000000B40000C001
(0000000037.507588) can0 2CB#0000280007FF87FF
(0000000037.507974) can0 280#0000020600971E16
(0000000037.508369) can1 4AE#C000000000003F3F
(0000000037.509364) can1 4CB#0000000500000002
(0000000037.510359) can1 4CD#00000000FFFFFFFF
(0000000037.511362) can1 4CF#00000000FFFFFFFF
(0000000037.511658) can0 29B#3FF6007020930000
(0000000037.511905) can0 4F8#00160802080007FD
(0000000037.512139) can0 217#2104019081FF0050
(0000000037.512356) can1 4D6#0000000000000000
(0000000037.512373) can0 257#348AED08D8070FE0
(0000000037.512609) can0 2C8#00C000C502C300BD
(0000000037.512853) can0 397#1000000000376700
(0000000037.513282) can1 4E3#9709F0022505C5ED
(0000000037.513841) can0 355#FF78786C7897786E
(0000000037.514074) can0 4D5#02AF590C60F49228
(0000000037.514256) can1 505#0802000305000000
(0000000037.514934) can0 2A6#00C600D200C518C6
(0000000037.515178) can0 293#000227FF100007FF
(0000000037.515417) can0 346#0028C900C804081C
(0000000037.515665) can0 358#00100200000057FE
(0000000037.515911) can0 3D3#000000004C0006E0
(0000000037.516161) can0 3D8#0000000000000000
(0000000037.516421) can0 3F3#1C26098BFF7F0080
(0000000037.516702) can1 080#0308417800093100
(0000000037.517863) can0 280#0000030600871E16
(0000000037.518475) can0 215#E5ABC5056D0394ED
(0000000037.518700) can0 255#89E46EAD6DABC5AB
(0000000037.519722) can0 289#000038321A203000
(0000000037.521664) can0 20B#C30C87FF24000000
(0000000037.521904) can0 24B#C8C83DF300000000
(0000000037.522138) can0 217#2104019081FF0050
(0000000037.522381) can0 294#7C6BC80180008000
(0000000037.522627) can0 2CB#0000280007FF87FF
(0000000037.522869) can0 39A#800000000000320E
(0000000037.523117) can0 3EB#000062000000FFFE
(0000000037.523353) can0 457#4800096006960082
(0000000037.523593) can0 477#0057015600000000
(0000000037.523846) can0 4FD#0000000000000000
(0000000037.524082) can0 295#B4320049FCBE8341
(0000000037.524314) can0 2B5#5FBDB20167AF0000
(0000000037.524546) can0 315#00062563BDFC6350
(0000000037.524790) can0 293#000327FF180007FF
(0000000037.525878) can0 3CF#0000000000000000
(0000000037.526113) can0 3B9#6E38850070148000
(0000000037.526781) can0 257#348AED09D80710E0
(0000000037.527017) can0 337#3B503F9191000000
(0000000037.527253) can0 2C8#00C000C502C300BD
(0000000037.527497) can0 397#1000000000376700
(0000000037.527924) can0 280#0000040600F71E16
(0000000037.529956) can0 2A6#00C600D200C518C6
(0000000037.531658) can0 29B#3FF7007020830000
(0000000037.531897) can0 217#2104019081FF0060
(0000000037.532143) can0 4F8#0016080207FF07FD
(0000000037.532766) can1 010#007CF80A00F11E16
(0000000037.533685) can1 4A8#224178787878EA00
(0000000037.534264) can0 215#E5B4C5246D249513
(0000000037.534489) can0 255#89E46EC06DB4C5B4
(0000000037.534677) can1 49D#0000000000000000
(0000000037.534727) can0 289#000038321A203000
(0000000037.534969) can0 45D#0000000000006F34
(0000000037.535215) can0 293#000427FF200007FF
(0000000037.535456) can0 353#026B4000000002B6
(0000000037.535669) can1 4C4#FFFFFFFFFFFFFFFF
(0000000037.535704) can0 358#00100200000057FE
(0000000037.535950) can0 3D3#000000004C0006E0
(0000000037.536200) can0 3D8#0000000000000000
(0000000037.536438) can0 3F3#1C260A8CFF7F0080
(0000000037.536690) can0 478#0000000000000000
(0000000037.536936) can0 422#000000000000F160
(0000000037.537263) can0 20B#C30D87FF28000000
(0000000037.537503) can0 24B#C8C83DF300000000
(0000000037.537745) can0 294#7C6BC80180008000
(0000000037.537983) can0 280#0000050600E71E16
(0000000037.538230) can0 2CB#0000280007FF87FF
(0000000037.538864) can0 495#8000000000000000
(0000000037.539229) can1 198#2000F4C7F4A9A100
(0000000037.540212) can1 1D0#0001000050001200
(0000000037.541194) can1 048#0000000090040101
(0000000037.541970) can0 217#2104019081FF0060
(0000000037.542177) can1 208#0040000001000030
(0000000037.542198) can0 257#348AED0AD80711E0
(0000000037.542434) can0 2C8#00C000C502C300BD
(0000000037.542678) can0 397#1000000000376700
(0000000037.542921) can0 39A#800000000000320E
(0000000037.543153) can0 4F7#00240053270F527E
(0000000037.543167) can1 492#0000000000000000
(0000000037.543393) can0 4FF#00000000CC743610
(0000000037.544142) can1 0F0#0000020080030841
(0000000037.544411) can0 295#B4330098FC70838F
(0000000037.544655) can0 293#000527FF280007FF
(0000000037.544891) can0 2B5#92C8B20267E80000
(0000000037.545121) can0 315#00062563C8FC6350
(0000000037.545132) can1 4E5#0000000000000000
(0000000037.545352) can0 2A6#00C600D200C518C6
(0000000037.545590) can0 346#0028C900C804081C
(0000000037.545966) can0 3CF#0000000000000000
(0000000037.546200) can0 3B9#6E38850070148000
(0000000037.547048) can1 4AA#0000000000000000
(0000000037.547873) can0 280#0000060600D71E16
(0000000037.549103) can0 215#E5BDC5356D359525
(0000000037.549327) can0 255#89E46EC86DBDC5BD
(0000000037.549765) can0 289#000038321A203000
(0000000037.551663) can0 20B#C30E87FF2C000000
(0000000037.551903) can0 24B#C8C83DF300000000
(0000000037.552009) can1 4C2#0000000000000834
(0000000037.552141) can0 217#2104019081FF0060
(0000000037.552384) can0 294#7C6BC80180008000
(0000000037.552626) can0 29B#3FF8007020730000
(0000000037.552872) can0 2CB#0000280007FF87FF
(0000000037.553110) can0 337#0A403F9191000000
(0000000037.553358) can0 3EB#000062000000FFFE
(0000000037.553605) can0 4F8#0016080207FF07FD
(0000000037.554957) can0 293#000627FF300007FF
(0000000037.555205) can0 358#00100200000057FE
(0000000037.555451) can0 3D3#000000004C0006E0
(0000000037.555701) can0 3D8#0000000000000000
(0000000037.555937) can0 3F3#1C260B8DFF7F0080
(0000000037.556598) can1 080#0308417800093100
(0000000037.556790) can0 257#348AED0BD80712E0
(0000000037.557034) can0 397#1000000000376700
(0000000037.557270) can0 2C8#00C000C502C300BD
(0000000037.557725) can1 0B8#ECE7F800038F00FF
(0000000037.557876) can0 280#0000070600C71E16
(0000000037.558669) can1 128#09300202C543E46B
(0000000037.559596) can1 160#01AC451E05769600
(0000000037.559945) can0 2A6#00C600D200C518C6
(0000000037.560563) can1 490#008005F36B000000
(0000000037.561669) can0 4FB#0000000000000008
(0000000037.561911) can0 39A#800000000000320E
(0000000037.562147) can0 217#2104019081FF0070
(0000000037.562384) can0 457#4800096006960082
(0000000037.562624) can0 477#0057015600000000
(0000000037.562876) can0 4FD#0000000000000000
(0000000037.563906) can0 215#E5CEC54F6D509545
(0000000037.564132) can0 255#89E481C86DCEC5CE
(0000000037.564368) can0 295#B43400F7FC1283ED
(0000000037.564612) can0 293#000727FF380007FF
(0000000037.564851) can0 289#000038321A203000
(0000000037.565085) can0 2B5#C8C8B20567E80000
(0000000037.565315) can0 315#00062563C8FC6350
(0000000037.565553) can0 353#026C4000000002D6
(0000000037.565777) can0 355#FF78786C7897786E
(0000000037.566027) can0 3CF#0000000000000000
(0000000037.566262) can0 3B9#6E38850070148000
(0000000037.566504) can0 45D#0000000000006F34
(0000000037.566748) can0 20B#C30F87FF30000000
(0000000037.566988) can0 24B#C8C83DF300000000
(0000000037.567230) can0 294#7C6BC80180008000
(0000000037.567477) can0 2CB#0000280007FF87FF
(0000000037.567723) can0 422#000000000000F160
(0000000037.567963) can0 280#0000080600371E16
(0000000037.568209) can0 4B5#0500000000070000
(0000000037.568439) can0 4D5#02AF600C60F49228
(0000000037.571660) can0 29B#3FF9007020630000
(0000000037.571906) can0 4F8#00160802080007FE
(0000000037.572142) can0 217#2104019081FF0070
(0000000037.572374) can0 257#348AED0CD80713E0
(0000000037.572610) can0 2C8#00C000C502C300BD
(0000000037.572854) can0 397#1000000000376700
(0000000037.574931) can0 2A6#00C600D200C518C6
(0000000037.575175) can0 293#000827FF400007FF
(0000000037.575413) can0 346#0028C900C804081C
(0000000037.575662) can0 358#00100200000057FE
(0000000037.575908) can0 3D3#000000004C0006E0
(0000000037.576158) can0 3D8#0000000000000000
(0000000037.576394) can0 3F3#1C260C8EFF7F0080
(0000000037.576772) can0 337#0A403F9191000000
(0000000037.577627) can1 010#007CF80A00F11E16
(0000000037.577884) can0 280#0000090600271E16
(0000000037.578543) can0 215#E5D8C5576D58954F
(0000000037.578769) can0 255#89E481C86DD8C5D8
(0000000037.579015) can0 495#8000000000000000
(0000000037.579355) can1 4A6#0800000000000000
(0000000037.579749) can0 289#000038321A203000
(0000000037.581703) can0 20B#C31087FF34000000
(0000000037.581939) can0 217#2104019081FF0070
(0000000037.582180) can0 24B#C8C83DF300000000
(0000000037.582424) can0 294#7C6CC80180008000
(0000000037.582670) can0 2CB#0000280007FF87FF
(0000000037.582835) can1 498#03600801C8000000
(0000000037.582912) can0 39A#800000000000320E
(0000000037.583161) can0 3EB#000062000000FFFE
(0000000037.583770) can1 49B#1858406100009C02
(0000000037.584270) can0 295#B4350064FBA78458
(0000000037.584505) can0 2B5#C8C8B20667E80000
(0000000037.584749) can0 293#000927FF480007FF
(0000000037.584758) can1 496#0000000000004000
(0000000037.584979) can0 315#00062563C8FC6350
(0000000037.585723) can1 494#1800000441030841
(0000000037.585825) can0 3CF#8000000000000000
(0000000037.586073) can0 3B9#6E38850070148000
(0000000037.586690) can1 4A1#000000B40000C001
(0000000037.586891) can0 257#348AED0DD80714E0
(0000000037.587136) can0 397#1000000000376700
(0000000037.587372) can0 2C8#00C000C502C300BD
(0000000037.587672) can1 048#0000000090040101
(0000000037.587920) can0 280#00000A0600171E16
(0000000037.588613) can1 49F#000097972104006A
(0000000037.589596) can1 4A3#000000000000106A
(0000000037.589948) can0 2A6#00C600D200C518C6
(0000000037.591659) can0 29B#3FFA007020530000
(0000000037.591905) can0 4F8#00160802080107FE
(0000000037.592145) can0 217#2104019081FF0000
(0000000037.593839) can0 215#E5E9C5676D699561
(0000000037.594063) can0 255#89E481C86DE9C5E9
(0000000037.594747) can0 289#000038321A203000
(0000000037.594995) can0 293#000A27FF500007FF
(0000000037.595236) can0 353#026440000000030F
(0000000037.595484) can0 358#00100200000057FE
(0000000037.595730) can0 3D3#000000004C0006E0
(0000000037.595980) can0 3D8#0000000000000000
(0000000037.596218) can0 3F3#1C260D8FFF7F0080
(0000000037.596470) can0 478#0000000000000000
(0000000037.596607) can1 080#0308417800093100
(0000000037.596985) can0 422#000000000000F160
(0000000037.597297) can0 20B#C31187FF38000000
(0000000037.597537) can0 24B#C8C83DF300000000
(0000000037.597781) can0 294#7C6CC80180008000
(0000000037.598022) can0 280#00000B0600071E16
